 (1628565839.289349)  can1  0000000A   [8]  20 46 52 4F 4E 54 20 20
 (1628565839.289837)  can1  00000004   [5]  11 84 5F 36 00
 (1628565839.299067)  can1  08020080   [2]  FF 0C
 (1628565839.299336)  can1  01800000   [8]  93 01 8F 01 85 0B A3 06
 (1628565839.299791)  can1  01310000   [4]  00 00 00 00
 (1628565839.308374)  can1  00000099   [4]  F7 0F FC 0F
 (1628565839.327389)  can1  08000080   [2]  00 00
 (1628565839.327954)  can1  01800000   [8]  96 01 8F 01 84 0B A3 06
 (1628565839.328414)  can1  01310000   [4]  00 00 00 00
 (1628565839.336991)  can1  00000099   [4]  FA 0F FC 0F
 (1628565839.343310)  can1  02020180   [8]  BC BE BD BE BD BE BD BD
 (1628565839.365325)  can1  08010080   [2]  00 00
 (1628565839.365880)  can1  01800000   [8]  95 01 8F 01 85 0B A3 06
 (1628565839.366323)  can1  01310000   [4]  00 00 00 00
 (1628565839.374829)  can1  00000099   [4]  FA 0F FF 0F
 (1628565839.389645)  can1  0000000A   [8]  20 46 52 4F 4E 54 20 20
 (1628565839.390114)  can1  00000004   [5]  11 84 5F 36 00
 (1628565839.393628)  can1  08020080   [2]  04 0D
 (1628565839.394199)  can1  01800000   [8]  95 01 8F 01 86 0B A4 06
 (1628565839.394640)  can1  01310000   [4]  00 00 00 00
 (1628565839.403232)  can1  00000099   [4]  FD 0F FE 0F
 (1628565839.431105)  can1  08000080   [2]  00 00
 (1628565839.431696)  can1  01800000   [8]  96 01 8E 01 85 0B A3 06
 (1628565839.432117)  can1  01310000   [4]  00 00 00 00
 (1628565839.432531)  can1  00000099   [4]  FB 0F FC 0F
 (1628565839.459509)  can1  08010080   [2]  00 00
 (1628565839.460069)  can1  01800000   [8]  96 01 8E 01 85 0B A3 06
 (1628565839.460519)  can1  01310000   [4]  00 00 00 00
 (1628565839.461695)  can1  0000000C   [8]  30 30 3A 30 34 3A 35 37
 (1628565839.461738)  can1  00000008   [1]  00
 (1628565839.461955)  can1  0000000B   [8]  55 4C 52 32 30 32 31 20
 (1628565839.462508)  can1  0000000D   [8]  49 44 4C 45 20 20 20 20
 (1628565839.469688)  can1  00000099   [4]  FD 0F FE 0F
 (1628565839.474225)  can1  02020280   [8]  BE BE BE BE BE BE BB BE
 (1628565839.488308)  can1  08020080   [2]  FF 0C
 (1628565839.488731)  can1  01310000   [4]  00 00 00 00
 (1628565839.489317)  can1  01800000   [8]  95 01 8E 01 86 0B A3 06
 (1628565839.489713)  can1  00000099   [4]  FC 0F FF 0F
 (1628565839.490267)  can1  0000000A   [8]  20 46 52 4F 4E 54 20 20
 (1628565839.490730)  can1  00000004   [5]  11 84 5F 36 00
 (1628565839.495714)  can1  020C0281   [4]  00 00 00 00
 (1628565839.526525)  can1  08000080   [2]  00 00
 (1628565839.527074)  can1  01800000   [8]  96 01 8F 01 85 0B A4 06
 (1628565839.527515)  can1  01310000   [4]  00 00 00 00
 (1628565839.536073)  can1  00000099   [4]  FB 0F FF 0F
 (1628565839.554999)  can1  08010080   [2]  00 00
 (1628565839.555605)  can1  01800000   [8]  97 01 8D 01 86 0B A3 06
 (1628565839.556008)  can1  01310000   [4]  00 00 00 00
 (1628565839.564560)  can1  00000099   [4]  F7 0F FC 0F
 (1628565839.590251)  can1  0000000A   [8]  20 46 52 4F 4E 54 20 20
 (1628565839.590708)  can1  00000004   [5]  11 84 5F 36 00
 (1628565839.592641)  can1  08020080   [2]  F9 0C
 (1628565839.593207)  can1  01800000   [8]  96 01 8E 01 86 0B A3 06
 (1628565839.593629)  can1  01310000   [4]  00 00 00 00
 (1628565839.602229)  can1  00000099   [4]  FB 0F FC 0F
 (1628565839.621203)  can1  08000080   [2]  00 00
 (1628565839.621816)  can1  01800000   [8]  96 01 8E 01 86 0B A4 06
 (1628565839.622211)  can1  01310000   [4]  00 00 00 00
 (1628565839.630766)  can1  00000099   [4]  FD 0F FE 0F
 (1628565839.647363)  can1  02020480   [8]  BE BD BE BF CA BE BF BE
 (1628565839.659125)  can1  08010080   [2]  00 00
 (1628565839.659704)  can1  01800000   [8]  95 01 8D 01 84 0B A3 06
 (1628565839.660129)  can1  01310000   [4]  00 00 00 00
 (1628565839.668725)  can1  00000099   [4]  F9 0F FE 0F
 (1628565839.687245)  can1  08020080   [2]  F4 0C
 (1628565839.687693)  can1  01310000   [4]  00 00 00 00
 (1628565839.688252)  can1  01800000   [8]  96 01 8E 01 85 0B A3 06
 (1628565839.688685)  can1  00000099   [4]  FA 0F FF 0F
 (1628565839.690613)  can1  0000000A   [8]  20 46 52 4F 4E 54 20 20
 (1628565839.690998)  can1  00000004   [5]  11 84 5F 36 00
 (1628565839.725278)  can1  08000080   [2]  00 00
 (1628565839.725838)  can1  01800000   [8]  95 01 8E 01 85 0B A3 06
 (1628565839.726279)  can1  01310000   [4]  00 00 00 00
 (1628565839.734855)  can1  00000099   [4]  FA 0F FD 0F
 (1628565839.753822)  can1  08010080   [2]  00 00
 (1628565839.754383)  can1  01800000   [8]  96 01 8E 01 86 0B A3 06
 (1628565839.754823)  can1  01310000   [4]  00 00 00 00
 (1628565839.763403)  can1  00000099   [4]  FB 0F FC 0F
 (1628565839.775442)  can1  02020580   [8]  BE BE BE BE BE BE BE BF
 (1628565839.782459)  can1  08020080   [2]  00 0D
 (1628565839.783732)  can1  01800000   [8]  96 01 8E 01 86 0B A2 06
 (1628565839.783785)  can1  01310000   [4]  00 00 00 00
 (1628565839.783796)  can1  00000099   [4]  FA 0F FD 0F
 (1628565839.785899)  can1  02030980   [8]  1E 1E FF FF FF 1D 1E 1D
 (1628565839.790806)  can1  0000000A   [8]  20 46 52 4F 4E 54 20 20
 (1628565839.791292)  can1  00000004   [5]  11 84 5F 36 00
 (1628565839.820296)  can1  08000080   [2]  00 00
 (1628565839.820852)  can1  01800000   [8]  96 01 8E 01 85 0B A3 06
 (1628565839.821286)  can1  01310000   [4]  00 00 00 00
 (1628565839.829861)  can1  00000099   [4]  FB 0F FF 0F
 (1628565839.839204)  can1  02010001   [1]  23
 (1628565839.849059)  can1  08010080   [2]  00 00
 (1628565839.849594)  can1  01800000   [8]  95 01 8E 01 86 0B A3 06
 (1628565839.850039)  can1  01310000   [4]  00 00 00 00
 (1628565839.851586)  can1  02070081   [8]  00 00 00 00 08 00 00 00
 (1628565839.858695)  can1  00000099   [4]  F7 0F FE 0F
 (1628565839.886590)  can1  08020080   [2]  FC 0C
 (1628565839.887145)  can1  01800000   [8]  97 01 8E 01 86 0B A4 06
 (1628565839.887588)  can1  01310000   [4]  00 00 00 00
 (1628565839.891114)  can1  0000000A   [8]  20 46 52 4F 4E 54 20 20
 (1628565839.891529)  can1  00000004   [5]  11 84 5F 36 00
 (1628565839.896423)  can1  00000099   [4]  FA 0F FF 0F
 (1628565839.915433)  can1  08000080   [2]  00 00
 (1628565839.916035)  can1  01800000   [8]  96 01 8F 01 85 0B A4 06
 (1628565839.916437)  can1  01310000   [4]  00 00 00 00
 (1628565839.925068)  can1  00000099   [4]  F9 0F FC 0F
 (1628565839.951369)  can1  02020680   [8]  BE C0 C0 BE BE BF BD BE
 (1628565839.953425)  can1  08010080   [2]  00 00
 (1628565839.953937)  can1  01310000   [4]  00 00 00 00
 (1628565839.954427)  can1  01800000   [8]  96 01 8E 01 83 0B A3 06
 (1628565839.954853)  can1  00000099   [4]  F9 0F FE 0F
 (1628565839.981723)  can1  08020080   [2]  00 0D
 (1628565839.982288)  can1  01800000   [8]  95 01 8E 01 86 0B A3 06
 (1628565839.982853)  can1  0000000C   [8]  30 30 3A 30 35 3A 31 30
 (1628565839.983170)  can1  00000008   [1]  00
 (1628565839.983725)  can1  0000000B   [8]  55 4C 52 32 30 32 31 20
 (1628565839.984290)  can1  0000000D   [8]  49 44 4C 45 20 20 20 20
 (1628565839.984719)  can1  01310000   [4]  00 00 00 00
 (1628565839.991385)  can1  0000000A   [8]  20 46 52 4F 4E 54 20 20
 (1628565839.991849)  can1  00000004   [5]  11 84 5F 36 00
 (1628565839.992300)  can1  00000099   [4]  FB 0F FE 0F
 (1628565840.011378)  can1  08000080   [2]  00 00
 (1628565840.011888)  can1  01800000   [8]  96 01 8E 01 85 0B A4 06
 (1628565840.012333)  can1  01310000   [4]  00 00 00 00
 (1628565840.020771)  can1  00000099   [4]  F6 0F FD 0F
 (1628565840.048669)  can1  08010080   [2]  00 00
 (1628565840.049269)  can1  01800000   [8]  96 01 8F 01 85 0B A4 06
 (1628565840.049682)  can1  01310000   [4]  00 00 00 00
 (1628565840.058146)  can1  00000099   [4]  FD 0F FF 0F
 (1628565840.076476)  can1  08020080   [2]  01 0D
 (1628565840.077032)  can1  01800000   [8]  96 01 8E 01 85 0B A4 06
 (1628565840.077468)  can1  01310000   [4]  00 00 00 00
 (1628565840.081049)  can1  02020780   [8]  BA BE BE BE BE BD BE BE
 (1628565840.087099)  can1  00000099   [4]  FB 0F FF 0F
 (1628565840.090265)  can1  02030C80   [8]  1D FF 1E 1E FF 1E 1D 1E
 (1628565840.091688)  can1  0000000A   [8]  20 46 52 4F 4E 54 20 20
 (1628565840.092138)  can1  00000004   [5]  11 84 60 36 00
 (1628565840.114381)  can1  08000080   [2]  00 00
 (1628565840.114966)  can1  01800000   [8]  96 01 8E 01 84 0B A4 06
 (1628565840.115375)  can1  01310000   [4]  00 00 00 00
 (1628565840.123882)  can1  00000099   [4]  FB 0F FD 0F
 (1628565840.142735)  can1  08010080   [2]  00 00
 (1628565840.143323)  can1  01800000   [8]  95 01 8D 01 84 0B A3 06
 (1628565840.143747)  can1  01310000   [4]  00 00 00 00
 (1628565840.144294)  can1  02020880   [8]  BE BE BD BF BE BD BB BA
 (1628565840.152340)  can1  00000099   [4]  F9 0F FD 0F
 (1628565840.179867)  can1  08020080   [2]  FB 0C
 (1628565840.180434)  can1  01800000   [8]  95 01 8E 01 86 0B A2 06
 (1628565840.180873)  can1  01310000   [4]  00 00 00 00
 (1628565840.189565)  can1  00000099   [4]  F7 0F FD 0F
 (1628565840.191976)  can1  0000000A   [8]  20 46 52 4F 4E 54 20 20
 (1628565840.192437)  can1  00000004   [5]  11 84 5F 36 00
 (1628565840.208435)  can1  08000080   [2]  00 00
 (1628565840.209033)  can1  01800000   [8]  96 01 8E 01 85 0B A4 06
 (1628565840.209442)  can1  01310000   [4]  00 00 00 00
 (1628565840.218119)  can1  00000099   [4]  FA 0F FD 0F
 (1628565840.245937)  can1  08010080   [2]  00 00
 (1628565840.246494)  can1  01800000   [8]  95 01 8E 01 84 0B A3 06
 (1628565840.246938)  can1  01310000   [4]  00 00 00 00
 (1628565840.255477)  can1  00000099   [4]  FA 0F FE 0F
 (1628565840.255999)  can1  02020980   [8]  B8 B9 BD BC B9 BD BE BD
 (1628565840.273940)  can1  08020080   [2]  EC 0C
 (1628565840.274400)  can1  01310000   [4]  00 00 00 00
 (1628565840.274942)  can1  01800000   [8]  95 01 8F 01 86 0B A5 06
 (1628565840.275374)  can1  00000099   [4]  FA 0F FF 0F
 (1628565840.292245)  can1  0000000A   [8]  20 46 52 4F 4E 54 20 20
 (1628565840.292698)  can1  00000004   [5]  11 84 5F 36 00
 (1628565840.311924)  can1  08000080   [2]  00 00
 (1628565840.312487)  can1  01800000   [8]  95 01 8E 01 84 0B A3 06
 (1628565840.313638)  can1  01310000   [4]  00 00 00 00
 (1628565840.320145)  can1  02020A80   [8]  BE BD BE BE BE BF BE C0
 (1628565840.321575)  can1  00000099   [4]  F7 0F FB 0F
 (1628565840.330037)  can1  02030E80   [8]  1E 1D FF 1D 1E 1E FF 1E
 (1628565840.340648)  can1  08010080   [2]  00 00
 (1628565840.341202)  can1  01800000   [8]  94 01 8E 01 85 0B A3 06
 (1628565840.341633)  can1  01310000   [4]  00 00 00 00
 (1628565840.350088)  can1  00000099   [4]  FB 0F FF 0F
 (1628565840.377600)  can1  08020080   [2]  EE 0C
 (1628565840.378117)  can1  01800000   [8]  96 01 8F 01 85 0B A4 06
 (1628565840.378557)  can1  01310000   [4]  00 00 00 00
 (1628565840.387095)  can1  00000099   [4]  FC 0F FD 0F
 (1628565840.392539)  can1  0000000A   [8]  20 46 52 4F 4E 54 20 20
 (1628565840.393037)  can1  00000004   [5]  11 84 5F 36 00
 (1628565840.406204)  can1  08000080   [2]  00 00
 (1628565840.406804)  can1  01800000   [8]  95 01 8F 01 85 0B A2 06
 (1628565840.407196)  can1  01310000   [4]  00 00 00 00
 (1628565840.415701)  can1  00000099   [4]  F9 0F FD 0F
 (1628565840.443752)  can1  08010080   [2]  00 00
 (1628565840.444340)  can1  01800000   [8]  96 01 8E 01 86 0B A3 06
 (1628565840.444755)  can1  01310000   [4]  00 00 00 00
 (1628565840.448784)  can1  02020B80   [8]  BE BE BE BE BE BE BE BE
 (1628565840.453374)  can1  00000099   [4]  FC 0F FE 0F
 (1628565840.471771)  can1  08020080   [2]  F6 0C
 (1628565840.472227)  can1  01310000   [4]  00 00 00 00
 (1628565840.472771)  can1  01800000   [8]  96 01 8E 01 84 0B A3 06
 (1628565840.473198)  can1  00000099   [4]  FA 0F FC 0F
 (1628565840.492833)  can1  0000000A   [8]  20 46 52 4F 4E 54 20 20
 (1628565840.493312)  can1  00000004   [5]  11 84 5F 36 00
 (1628565840.500486)  can1  08000080   [2]  00 00
 (1628565840.501043)  can1  01800000   [8]  96 01 8F 01 85 0B A3 06
 (1628565840.501465)  can1  01310000   [4]  00 00 00 00
 (1628565840.501895)  can1  00000099   [4]  F9 0F FF 0F
 (1628565840.504257)  can1  0000000D   [8]  49 44 4C 45 20 20 20 20
 (1628565840.504803)  can1  0000000C   [8]  30 30 3A 30 35 3A 36 31
 (1628565840.505128)  can1  00000008   [1]  00
 (1628565840.505738)  can1  0000000B   [8]  55 4C 52 32 30 32 31 20
 (1628565840.538589)  can1  08010080   [2]  00 00
 (1628565840.539163)  can1  01800000   [8]  95 01 8E 01 83 0B A4 06
 (1628565840.539593)  can1  01310000   [4]  00 00 00 00
 (1628565840.548101)  can1  00000099   [4]  F7 0F FC 0F
 (1628565840.559659)  can1  02020C81   [4]  BE BE BE BE
 (1628565840.566666)  can1  08020080   [2]  F8 0C
 (1628565840.567201)  can1  01800000   [8]  97 01 8D 01 87 0B A3 06
 (1628565840.567648)  can1  01310000   [4]  00 00 00 00
 (1628565840.568070)  can1  00000099   [4]  F8 0F FD 0F
 (1628565840.593130)  can1  0000000A   [8]  20 46 52 4F 4E 54 20 20
 (1628565840.593598)  can1  00000004   [5]  11 84 5F 36 00
 (1628565840.604486)  can1  08000080   [2]  00 00
 (1628565840.605047)  can1  01800000   [8]  96 01 8E 01 84 0B A4 06
 (1628565840.605487)  can1  01310000   [4]  00 00 00 00
 (1628565840.605906)  can1  00000099   [4]  F9 0F FD 0F
 (1628565840.623776)  can1  02020080   [8]  BA BE BD BE BE BF BD BE
 (1628565840.633164)  can1  08010080   [2]  00 00
 (1628565840.633652)  can1  01800000   [8]  95 01 8D 01 86 0B A3 06
 (1628565840.634060)  can1  01310000   [4]  00 00 00 00
 (1628565840.634489)  can1  00000099   [4]  FA 0F FE 0F
 (1628565840.635782)  can1  02031180   [8]  1D 1C 1D 1D 1D 1C 1D 1D
 (1628565840.670496)  can1  08020080   [2]  EF 0C
 (1628565840.671056)  can1  01800000   [8]  96 01 8D 01 84 0B A3 06
 (1628565840.671498)  can1  01310000   [4]  00 00 00 00
 (1628565840.680013)  can1  00000099   [4]  F7 0F FC 0F
 (1628565840.693419)  can1  0000000A   [8]  20 46 52 4F 4E 54 20 20
 (1628565840.693872)  can1  00000004   [5]  11 84 5F 36 00
 (1628565840.699093)  can1  08000080   [2]  00 00
 (1628565840.699644)  can1  01800000   [8]  95 01 8E 01 86 0B A3 06
 (1628565840.700089)  can1  01310000   [4]  00 00 00 00
 (1628565840.708578)  can1  00000099   [4]  FA 0F FF 0F
 (1628565840.736574)  can1  08010080   [2]  00 00
 (1628565840.737171)  can1  01800000   [8]  95 01 8F 01 83 0B A4 06
 (1628565840.737625)  can1  01310000   [4]  00 00 00 00
 (1628565840.746136)  can1  00000099   [4]  F7 0F FB 0F
 (1628565840.752173)  can1  02020180   [8]  BC BE BD BE BD BE BD BD
 (1628565840.764579)  can1  08020080   [2]  DD 0C
 (1628565840.765522)  can1  01800000   [8]  96 01 8E 01 85 0B A3 06
 (1628565840.765565)  can1  01310000   [4]  00 00 00 00
 (1628565840.766032)  can1  00000099   [4]  FB 0F FB 0F
 (1628565840.793732)  can1  0000000A   [8]  20 46 52 4F 4E 54 20 20
 (1628565840.794189)  can1  00000004   [5]  11 84 5F 36 00
 (1628565840.802394)  can1  08000080   [2]  00 00
 (1628565840.802955)  can1  01800000   [8]  95 01 8F 01 84 0B A4 06
 (1628565840.803394)  can1  01310000   [4]  00 00 00 00
 (1628565840.803820)  can1  00000099   [4]  FD 0F FB 0F
 (1628565840.830818)  can1  08010080   [2]  00 00
 (1628565840.831416)  can1  01800000   [8]  95 01 8F 01 85 0B A3 06
 (1628565840.831848)  can1  01310000   [4]  00 00 00 00
 (1628565840.840300)  can1  00000099   [4]  FA 0F FF 0F
 (1628565840.863514)  can1  02010001   [1]  23
 (1628565840.868152)  can1  08020080   [2]  FC 0C
 (1628565840.868709)  can1  01800000   [8]  96 01 8D 01 84 0B A2 06
 (1628565840.869193)  can1  01310000   [4]  00 00 00 00
 (1628565840.871656)  can1  02030080   [8]  FF 1D 1D 1D 1D 1D 1D 1D
 (1628565840.877801)  can1  00000099   [4]  F9 0F FD 0F
 (1628565840.894025)  can1  0000000A   [8]  20 46 52 4F 4E 54 20 20
 (1628565840.894515)  can1  00000004   [5]  11 84 60 36 00
 (1628565840.897005)  can1  08000080   [2]  00 00
 (1628565840.897548)  can1  01800000   [8]  95 01 8F 01 83 0B A4 06
 (1628565840.898044)  can1  01310000   [4]  00 00 00 00
 (1628565840.906495)  can1  00000099   [4]  F9 0F FF 0F
 (1628565840.925428)  can1  08010080   [2]  00 00
 (1628565840.926035)  can1  01800000   [8]  94 01 8E 01 83 0B A4 06
 (1628565840.926426)  can1  01310000   [4]  00 00 00 00
 (1628565840.929786)  can1  02020280   [8]  BE BE BE BE BE BE BB BE
 (1628565840.935080)  can1  00000099   [4]  F9 0F FB 0F
 (1628565840.962735)  can1  08020080   [2]  F0 0C
 (1628565840.963173)  can1  01310000   [4]  00 00 00 00
 (1628565840.963735)  can1  01800000   [8]  94 01 8E 01 86 0B A4 06
 (1628565840.964188)  can1  00000099   [4]  FC 0F FD 0F
 (1628565840.991270)  can1  08000080   [2]  00 00
 (1628565840.991826)  can1  01800000   [8]  96 01 8F 01 85 0B A3 06
 (1628565840.992262)  can1  01310000   [4]  00 00 00 00
 (1628565840.992689)  can1  00000099   [4]  F9 0F FD 0F
 (1628565840.994348)  can1  0000000A   [8]  20 46 52 4F 4E 54 20 20
 (1628565840.994793)  can1  00000004   [5]  11 84 5F 36 00
 (1628565841.026115)  can1  0000000D   [8]  49 44 4C 45 20 20 20 20
 (1628565841.026685)  can1  0000000C   [8]  30 30 3A 30 36 3A 31 34
 (1628565841.026997)  can1  00000008   [1]  00
 (1628565841.027565)  can1  0000000B   [8]  55 4C 52 32 30 32 31 20
 (1628565841.029632)  can1  08010080   [2]  00 00
 (1628565841.030175)  can1  01800000   [8]  96 01 8E 01 85 0B A3 06
 (1628565841.030618)  can1  01310000   [4]  00 00 00 00
 (1628565841.039161)  can1  00000099   [4]  F7 0F FC 0F
 (1628565841.056144)  can1  02020380   [8]  BE BD BD BD BE BE BE BE
 (1628565841.057887)  can1  08020080   [2]  E8 0C
 (1628565841.058443)  can1  01800000   [8]  96 01 8D 01 84 0B A3 06
 (1628565841.058889)  can1  01310000   [4]  00 00 00 00
 (1628565841.067458)  can1  00000099   [4]  F7 0F FB 0F
 (1628565841.094643)  can1  0000000A   [8]  20 46 52 4F 4E 54 20 20
 (1628565841.095111)  can1  00000004   [5]  11 84 60 36 00
 (1628565841.095754)  can1  08000080   [2]  00 00
 (1628565841.096316)  can1  01800000   [8]  95 01 8E 01 86 0B A3 06
 (1628565841.096754)  can1  01310000   [4]  00 00 00 00
 (1628565841.105343)  can1  00000099   [4]  FA 0F FE 0F
 (1628565841.124297)  can1  08010080   [2]  00 00
 (1628565841.124893)  can1  01800000   [8]  97 01 8E 01 86 0B A4 06
 (1628565841.125297)  can1  01310000   [4]  00 00 00 00
 (1628565841.133850)  can1  00000099   [4]  FA 0F FD 0F
 (1628565841.161528)  can1  08020080   [2]  F0 0C
 (1628565841.162084)  can1  01800000   [8]  96 01 8E 01 85 0B A4 06
 (1628565841.162567)  can1  01310000   [4]  00 00 00 00
 (1628565841.163032)  can1  00000099   [4]  FB 0F FF 0F
 (1628565841.167946)  can1  02020480   [8]  BE BD BE BF CA BE BF BE
 (1628565841.190110)  can1  08000080   [2]  00 00
 (1628565841.190662)  can1  01800000   [8]  96 01 8E 01 85 0B A3 06
 (1628565841.191102)  can1  01310000   [4]  00 00 00 00
 (1628565841.194944)  can1  0000000A   [8]  20 46 52 4F 4E 54 20 20
 (1628565841.195393)  can1  00000004   [5]  11 84 60 36 00
 (1628565841.200065)  can1  00000099   [4]  FA 0F FF 0F
 (1628565841.218854)  can1  08010080   [2]  00 00
 (1628565841.219298)  can1  01310000   [4]  00 00 00 00
 (1628565841.219866)  can1  01800000   [8]  96 01 8E 01 83 0B A4 06
 (1628565841.220290)  can1  00000099   [4]  F8 0F FF 0F
 (1628565841.232659)  can1  02020580   [8]  BE BE BE BE BE BE BE BF
 (1628565841.256353)  can1  08020080   [2]  FD 0C
 (1628565841.256917)  can1  01800000   [8]  96 01 8E 01 84 0B A3 06
 (1628565841.257352)  can1  01310000   [4]  00 00 00 00
 (1628565841.266151)  can1  00000099   [4]  FA 0F FC 0F
 (1628565841.284996)  can1  08000080   [2]  00 00
 (1628565841.285555)  can1  01800000   [8]  95 01 8E 01 85 0B A3 06
 (1628565841.285994)  can1  01310000   [4]  00 00 00 00
 (1628565841.294764)  can1  00000099   [4]  FC 0F FC 0F
 (1628565841.295340)  can1  0000000A   [8]  20 46 52 4F 4E 54 20 20
 (1628565841.295784)  can1  00000004   [5]  11 84 60 34 00
 (1628565841.323206)  can1  08010080   [2]  00 00
 (1628565841.323767)  can1  01800000   [8]  97 01 8D 01 85 0B A2 06
 (1628565841.324201)  can1  01310000   [4]  00 00 00 00
 (1628565841.332696)  can1  00000099   [4]  F7 0F FE 0F
 (1628565841.351043)  can1  08020080   [2]  F2 0C
 (1628565841.351629)  can1  01800000   [8]  96 01 8E 01 85 0B A4 06
 (1628565841.352076)  can1  01310000   [4]  00 00 00 00
 (1628565841.360126)  can1  02020680   [8]  BE C0 C0 BE BE BF BD BE
 (1628565841.360557)  can1  00000099   [4]  F7 0F FD 0F
 (1628565841.388698)  can1  08000080   [2]  00 00
 (1628565841.389257)  can1  01800000   [8]  96 01 8E 01 87 0B A4 06
 (1628565841.389700)  can1  01310000   [4]  00 00 00 00
 (1628565841.395524)  can1  0000000A   [8]  20 46 52 4F 4E 54 20 20
 (1628565841.395982)  can1  00000004   [5]  11 84 60 36 00
 (1628565841.398446)  can1  00000099   [4]  F7 0F FB 0F
 (1628565841.417283)  can1  08010080   [2]  00 00
 (1628565841.417828)  can1  01800000   [8]  96 01 8D 01 86 0B A3 06
 (1628565841.418273)  can1  01310000   [4]  00 00 00 00
 (1628565841.424189)  can1  02030580   [8]  1E 1D 1D 1A 1E 1D 00 1D
 (1628565841.426939)  can1  00000099   [4]  FA 0F FC 0F
 (1628565841.433918)  can1  02020080   [8]  BA BE BD BE BE BF BD BE
 (1628565841.454820)  can1  08020080   [2]  FE 0C
 (1628565841.455375)  can1  01800000   [8]  96 01 8D 01 85 0B A3 06
 (1628565841.455817)  can1  01310000   [4]  00 00 00 00
 (1628565841.464353)  can1  00000099   [4]  FC 0F FC 0F
 (1628565841.483138)  can1  08000080   [2]  00 00
 (1628565841.483705)  can1  01800000   [8]  96 01 8D 01 86 0B A2 06
 (1628565841.484146)  can1  01310000   [4]  00 00 00 00
 (1628565841.484609)  can1  00000099   [4]  F9 0F FB 0F
 (1628565841.495791)  can1  0000000A   [8]  20 46 52 4F 4E 54 20 20
 (1628565841.496272)  can1  00000004   [5]  11 84 5F 36 00
 (1628565841.520841)  can1  08010080   [2]  00 00
 (1628565841.521331)  can1  01310000   [4]  00 00 00 00
 (1628565841.521845)  can1  01800000   [8]  96 01 8E 01 85 0B A4 06
 (1628565841.522270)  can1  00000099   [4]  FD 0F FF 0F
 (1628565841.536187)  can1  02020180   [8]  BC BE BD BE BD BE BD BD
 (1628565841.547946)  can1  0000000D   [8]  49 44 4C 45 20 20 20 20
 (1628565841.548496)  can1  0000000C   [8]  30 30 3A 30 36 3A 36 35
 (1628565841.548818)  can1  00000008   [1]  00
 (1628565841.549370)  can1  0000000B   [8]  55 4C 52 32 30 32 31 20
 (1628565841.549939)  can1  01800000   [8]  96 01 8E 01 85 0B A4 06
 (1628565841.550370)  can1  01310000   [4]  00 00 00 00
 (1628565841.550729)  can1  08020080   [2]  FD 0C
 (1628565841.559248)  can1  00000099   [4]  FB 0F FB 0F
 (1628565841.577986)  can1  08000080   [2]  00 00
 (1628565841.578562)  can1  01800000   [8]  96 01 8D 01 86 0B A3 06
 (1628565841.578992)  can1  01310000   [4]  00 00 00 00
 (1628565841.579430)  can1  00000099   [4]  FA 0F FC 0F
 (1628565841.596087)  can1  0000000A   [8]  20 46 52 4F 4E 54 20 20
 (1628565841.596524)  can1  00000004   [5]  11 84 60 36 00
 (1628565841.616041)  can1  08010080   [2]  00 00
 (1628565841.616646)  can1  01800000   [8]  96 01 8D 01 85 0B A3 06
 (1628565841.617042)  can1  01310000   [4]  00 00 00 00
 (1628565841.625594)  can1  00000099   [4]  FD 0F FC 0F
 (1628565841.644118)  can1  08020080   [2]  02 0D
 (1628565841.644698)  can1  01800000   [8]  96 01 8E 01 86 0B A2 06
 (1628565841.645117)  can1  01310000   [4]  00 00 00 00
 (1628565841.653644)  can1  00000099   [4]  FC 0F FF 0F
 (1628565841.664312)  can1  02020280   [8]  BE BE BE BE BE BE BB BE
 (1628565841.681792)  can1  08000080   [2]  00 00
 (1628565841.682347)  can1  01800000   [8]  96 01 8E 01 83 0B A3 06
 (1628565841.682792)  can1  01310000   [4]  00 00 00 00
 (1628565841.691356)  can1  00000099   [4]  FA 0F FE 0F
 (1628565841.696353)  can1  0000000A   [8]  20 46 52 4F 4E 54 20 20
 (1628565841.696833)  can1  00000004   [5]  11 84 60 36 00
 (1628565841.710472)  can1  08010080   [2]  00 00
 (1628565841.711050)  can1  01800000   [8]  96 01 90 01 84 0B A3 06
 (1628565841.711481)  can1  01310000   [4]  00 00 00 00
 (1628565841.720238)  can1  00000099   [4]  F9 0F FD 0F
 (1628565841.729075)  can1  02020380   [8]  BE BD BD BD BE BE BE BE
 (1628565841.747965)  can1  08020080   [2]  F6 0C
 (1628565841.748682)  can1  01800000   [8]  96 01 8E 01 84 0B A4 06
 (1628565841.749053)  can1  01310000   [4]  00 00 00 00
 (1628565841.754401)  can1  02030880   [8]  1D 1E 1E 1E FF 1E 1E FF
 (1628565841.757621)  can1  00000099   [4]  FD 0F FD 0F
 (1628565841.776618)  can1  08000080   [2]  00 00
 (1628565841.777191)  can1  01800000   [8]  95 01 8E 01 85 0B A4 06
 (1628565841.777614)  can1  01310000   [4]  00 00 00 00
 (1628565841.786144)  can1  00000099   [4]  FB 0F FF 0F
 (1628565841.796669)  can1  0000000A   [8]  20 46 52 4F 4E 54 20 20
 (1628565841.797103)  can1  00000004   [5]  11 84 60 36 00
 (1628565841.814567)  can1  08010080   [2]  00 00
 (1628565841.815166)  can1  01800000   [8]  95 01 8F 01 85 0B A3 06
 (1628565841.815564)  can1  01310000   [4]  00 00 00 00
 (1628565841.824089)  can1  00000099   [4]  FA 0F FC 0F
 (1628565841.840041)  can1  02010001   [1]  23
 (1628565841.842842)  can1  08020080   [2]  03 0D
 (1628565841.843404)  can1  01800000   [8]  95 01 8E 01 84 0B A3 06
 (1628565841.843826)  can1  01310000   [4]  00 00 00 00
 (1628565841.849767)  can1  02070081   [8]  00 00 00 00 08 00 00 00
 (1628565841.852533)  can1  00000099   [4]  FA 0F FC 0F
 (1628565841.880718)  can1  08000080   [2]  00 00
 (1628565841.881283)  can1  01800000   [8]  95 01 8E 01 86 0B A3 06
 (1628565841.881724)  can1  01310000   [4]  00 00 00 00
 (1628565841.890326)  can1  00000099   [4]  FB 0F FC 0F
 (1628565841.896907)  can1  0000000A   [8]  20 46 52 4F 4E 54 20 20
 (1628565841.897383)  can1  00000004   [5]  11 84 60 34 00
 (1628565841.909472)  can1  08010080   [2]  00 00
 (1628565841.910069)  can1  01800000   [8]  96 01 8E 01 85 0B A4 06
 (1628565841.910474)  can1  01310000   [4]  00 00 00 00
 (1628565841.919241)  can1  00000099   [4]  FA 0F FD 0F
 (1628565841.937779)  can1  08020080   [2]  EC 0C
 (1628565841.938333)  can1  01800000   [8]  95 01 8D 01 85 0B A3 06
 (1628565841.938790)  can1  01310000   [4]  00 00 00 00
 (1628565841.947365)  can1  00000099   [4]  FC 0F FF 0F
 (1628565841.968434)  can1  02020480   [8]  BE BD BE BF CA BE BF BE
 (1628565841.975775)  can1  08000080   [2]  00 00
 (1628565841.976316)  can1  01800000   [8]  96 01 8E 01 84 0B A4 06
 (1628565841.976759)  can1  01310000   [4]  00 00 00 00
 (1628565841.978359)  can1  020C0080   [8]  00 00 00 00 00 00 00 00
 (1628565841.985558)  can1  00000099   [4]  F7 0F FF 0F
 (1628565841.997172)  can1  0000000A   [8]  20 46 52 4F 4E 54 20 20
 (1628565841.997655)  can1  00000004   [5]  11 84 60 36 00
 (1628565842.004469)  can1  08010080   [2]  00 00
 (1628565842.005053)  can1  01800000   [8]  95 01 8E 01 86 0B A3 06
 (1628565842.005470)  can1  01310000   [4]  00 00 00 00
 (1628565842.005967)  can1  00000099   [4]  FB 0F FD 0F
 (1628565842.032210)  can1  02020580   [8]  BE BE BE BE BE BE BE BF
 (1628565842.041914)  can1  08020080   [2]  FC 0C
 (1628565842.042449)  can1  01800000   [8]  95 01 8F 01 85 0B A4 06
 (1628565842.042881)  can1  01310000   [4]  00 00 00 00
 (1628565842.051422)  can1  00000099   [4]  FD 0F FD 0F
 (1628565842.069713)  can1  0000000D   [8]  49 44 4C 45 20 20 20 20
 (1628565842.070262)  can1  0000000C   [8]  30 30 3A 30 37 3A 31 38
 (1628565842.070588)  can1  00000008   [1]  00
 (1628565842.071138)  can1  0000000B   [8]  55 4C 52 32 30 32 31 20
 (1628565842.071703)  can1  01800000   [8]  96 01 8F 01 87 0B A4 06
 (1628565842.072140)  can1  01310000   [4]  00 00 00 00
 (1628565842.072512)  can1  08000080   [2]  00 00
 (1628565842.080619)  can1  00000099   [4]  FB 0F FF 0F
 (1628565842.097516)  can1  0000000A   [8]  20 46 52 4F 4E 54 20 20
 (1628565842.098018)  can1  00000004   [5]  11 84 60 34 00
 (1628565842.108735)  can1  08010080   [2]  00 00
 (1628565842.109296)  can1  01800000   [8]  96 01 8F 01 85 0B A3 06
 (1628565842.109736)  can1  01310000   [4]  00 00 00 00
 (1628565842.110166)  can1  00000099   [4]  FA 0F FF 0F
 (1628565842.136923)  can1  08020080   [2]  F7 0C
 (1628565842.137488)  can1  01800000   [8]  95 01 8E 01 84 0B A3 06
 (1628565842.137933)  can1  01310000   [4]  00 00 00 00
 (1628565842.144745)  can1  02020680   [8]  BE C0 C0 BE BE BF BD BE
 (1628565842.146593)  can1  00000099   [4]  FA 0F FC 0F
 (1628565842.165549)  can1  08000080   [2]  00 00
 (1628565842.166100)  can1  01800000   [8]  95 01 8F 01 83 0B A4 06
 (1628565842.166537)  can1  01310000   [4]  00 00 00 00
 (1628565842.175098)  can1  00000099   [4]  FC 0F FE 0F
 (1628565842.197762)  can1  0000000A   [8]  20 46 52 4F 4E 54 20 20
 (1628565842.198258)  can1  00000004   [5]  11 84 60 34 00
 (1628565842.203494)  can1  08010080   [2]  00 00
 (1628565842.204047)  can1  01800000   [8]  96 01 8F 01 83 0B A4 06
 (1628565842.204487)  can1  01310000   [4]  00 00 00 00
 (1628565842.204909)  can1  00000099   [4]  FB 0F FD 0F
 (1628565842.231691)  can1  08020080   [2]  E9 0C
 (1628565842.232276)  can1  01800000   [8]  95 01 8F 01 88 0B A3 06
 (1628565842.232691)  can1  01310000   [4]  00 00 00 00
 (1628565842.241318)  can1  00000099   [4]  F9 0F FC 0F
 (1628565842.269550)  can1  08000080   [2]  00 00
 (1628565842.270139)  can1  01800000   [8]  96 01 8E 01 86 0B A3 06
 (1628565842.270583)  can1  01310000   [4]  00 00 00 00
 (1628565842.274043)  can1  02020780   [8]  BA BE BE BE BE BD BE BE
 (1628565842.279267)  can1  00000099   [4]  F7 0F FA 0F
 (1628565842.283210)  can1  02030E80   [8]  1E 1D FF 1D 1E 1E FF 1E
 (1628565842.298041)  can1  0000000A   [8]  20 46 52 4F 4E 54 20 20
 (1628565842.298567)  can1  00000004   [5]  11 84 60 34 00
 (1628565842.298983)  can1  01310000   [4]  00 00 00 00
 (1628565842.299487)  can1  01800000   [8]  96 01 8E 01 85 0B A4 06
 (1628565842.299844)  can1  08010080   [2]  00 00
 (1628565842.308331)  can1  00000099   [4]  FB 0F FD 0F
 (1628565842.335993)  can1  08020080   [2]  F8 0C
 (1628565842.336539)  can1  01800000   [8]  96 01 8F 01 85 0B A4 06
 (1628565842.337051)  can1  01310000   [4]  00 00 00 00
 (1628565842.337542)  can1  02020880   [8]  BE BE BD BF BE BE BB BA
 (1628565842.345840)  can1  00000099   [4]  FD 0F FB 0F
 (1628565842.364658)  can1  08000080   [2]  00 00
 (1628565842.365207)  can1  01800000   [8]  96 01 8E 01 86 0B A3 06
 (1628565842.365652)  can1  01310000   [4]  00 00 00 00
 (1628565842.374417)  can1  00000099   [4]  F7 0F FC 0F
 (1628565842.398287)  can1  0000000A   [8]  20 46 52 4F 4E 54 20 20
 (1628565842.398737)  can1  00000004   [5]  11 84 60 33 00
 (1628565842.402695)  can1  08010080   [2]  00 00
 (1628565842.403276)  can1  01800000   [8]  96 01 8E 01 86 0B A2 06
 (1628565842.403649)  can1  01310000   [4]  00 00 00 00
 (1628565842.404073)  can1  00000099   [4]  FC 0F FF 0F
 (1628565842.430849)  can1  08020080   [2]  EB 0C
 (1628565842.431411)  can1  01800000   [8]  96 01 8E 01 86 0B A3 06
 (1628565842.431873)  can1  01310000   [4]  00 00 00 00
 (1628565842.440445)  can1  00000099   [4]  FD 0F FE 0F
 (1628565842.448550)  can1  02020980   [8]  B8 B9 BD BC B9 BD BE BD
 (1628565842.459680)  can1  08000080   [2]  00 00
 (1628565842.460236)  can1  01800000   [8]  95 01 8E 01 85 0B A3 06
 (1628565842.460684)  can1  01310000   [4]  00 00 00 00
 (1628565842.461108)  can1  00000099   [4]  FD 0F FE 0F
 (1628565842.497454)  can1  08010080   [2]  00 00
 (1628565842.497936)  can1  01800000   [8]  96 01 8D 01 85 0B A4 06
 (1628565842.498370)  can1  01310000   [4]  00 00 00 00
 (1628565842.498882)  can1  00000004   [5]  11 85 60 33 00
 (1628565842.499375)  can1  0000000A   [8]  20 46 52 4F 4E 54 20 20
 (1628565842.507380)  can1  00000099   [4]  F7 0F FD 0F
 (1628565842.512834)  can1  02031080   [8]  1D 1D 1D 1D 1D 1D FF 1D
 (1628565842.526028)  can1  08020080   [2]  E4 0C
 (1628565842.526661)  can1  01310000   [4]  00 00 00 00
 (1628565842.527009)  can1  01800000   [8]  95 01 8E 01 85 0B A4 06
 (1628565842.527431)  can1  00000099   [4]  FB 0F FF 0F
 (1628565842.528766)  can1  02020A80   [8]  BE BD BE BE BE BF BE C0
 (1628565842.564161)  can1  08000080   [2]  00 00
 (1628565842.564731)  can1  01800000   [8]  95 01 8E 01 88 0B A4 06
 (1628565842.565170)  can1  01310000   [4]  00 00 00 00
 (1628565842.573808)  can1  00000099   [4]  F7 0F FF 0F
 (1628565842.591442)  can1  0000000D   [8]  49 44 4C 45 20 20 20 20
 (1628565842.592008)  can1  0000000C   [8]  30 30 3A 30 37 3A 37 30
 (1628565842.592325)  can1  00000008   [1]  00
 (1628565842.600181)  can1  0000000B   [8]  55 4C 52 32 30 32 31 20
 (1628565842.600239)  can1  01310000   [4]  00 00 00 00
 (1628565842.600251)  can1  01800000   [8]  97 01 8D 01 85 0B A3 06
 (1628565842.600261)  can1  08010080   [2]  00 00
 (1628565842.600270)  can1  0000000A   [8]  20 46 52 4F 4E 54 20 20
 (1628565842.600280)  can1  00000004   [5]  11 84 60 33 00
 (1628565842.603339)  can1  00000099   [4]  FA 0F FC 0F
 (1628565842.631117)  can1  08020080   [2]  F2 0C
 (1628565842.631673)  can1  01800000   [8]  96 01 8E 01 83 0B A2 06
 (1628565842.632152)  can1  01310000   [4]  00 00 00 00
 (1628565842.632538)  can1  00000099   [4]  F7 0F FD 0F
 (1628565842.640602)  can1  02020B80   [8]  BE BE BE BE BE BE BE BE
 (1628565842.659514)  can1  08000080   [2]  00 00
 (1628565842.660088)  can1  01800000   [8]  96 01 8E 01 86 0B A3 06
 (1628565842.660510)  can1  01310000   [4]  00 00 00 00
 (1628565842.668994)  can1  00000099   [4]  FC 0F FD 0F
 (1628565842.697026)  can1  08010080   [2]  00 00
 (1628565842.697592)  can1  01800000   [8]  96 01 8D 01 86 0B A3 06
 (1628565842.698024)  can1  01310000   [4]  00 00 00 00
 (1628565842.699101)  can1  0000000A   [8]  20 46 52 4F 4E 54 20 20
 (1628565842.699556)  can1  00000004   [5]  11 84 60 33 00
 (1628565842.706785)  can1  00000099   [4]  FC 0F FF 0F
 (1628565842.725173)  can1  08020080   [2]  DF 0C
 (1628565842.725697)  can1  01800000   [8]  95 01 8E 01 86 0B A3 06
 (1628565842.726140)  can1  01310000   [4]  00 00 00 00
 (1628565842.726557)  can1  00000099   [4]  F9 0F FB 0F
 (1628565842.753544)  can1  08000080   [2]  00 00
 (1628565842.754107)  can1  01800000   [8]  95 01 8E 01 86 0B A4 06
 (1628565842.754559)  can1  01310000   [4]  00 00 00 00
 (1628565842.763262)  can1  00000099   [4]  FA 0F FC 0F
 (1628565842.769188)  can1  02020C81   [4]  BE BE BE BE
 (1628565842.791306)  can1  08010080   [2]  00 00
 (1628565842.791876)  can1  01800000   [8]  96 01 8E 01 86 0B A4 06
 (1628565842.792319)  can1  01310000   [4]  00 00 00 00
 (1628565842.799346)  can1  0000000A   [8]  20 46 52 4F 4E 54 20 20
 (1628565842.799807)  can1  00000004   [5]  11 84 60 32 00
 (1628565842.801204)  can1  00000099   [4]  FB 0F FF 0F
 (1628565842.816922)  can1  02010001   [1]  23
 (1628565842.819119)  can1  02031381   [8]  1D 1D 1D 1D 1D 1D 1D 1D
 (1628565842.819876)  can1  08020080   [2]  DB 0C
 (1628565842.820372)  can1  01800000   [8]  96 01 8E 01 86 0B A3 06
 (1628565842.820813)  can1  01310000   [4]  00 00 00 00
 (1628565842.829615)  can1  00000099   [4]  F7 0F FE 0F
 (1628565842.857468)  can1  08000080   [2]  00 00
 (1628565842.858042)  can1  01800000   [8]  96 01 8E 01 85 0B A3 06
 (1628565842.858471)  can1  01310000   [4]  00 00 00 00
 (1628565842.867041)  can1  00000099   [4]  FD 0F FC 0F
 (1628565842.885956)  can1  08010080   [2]  00 00
 (1628565842.886541)  can1  01800000   [8]  96 01 8F 01 86 0B A3 06
 (1628565842.886992)  can1  01310000   [4]  00 00 00 00
 (1628565842.895499)  can1  00000099   [4]  FA 0F FA 0F
 (1628565842.899610)  can1  0000000A   [8]  20 46 52 4F 4E 54 20 20
 (1628565842.900087)  can1  00000004   [5]  11 84 60 34 00
 (1628565842.923588)  can1  08020080   [2]  F8 0C
 (1628565842.924136)  can1  01800000   [8]  96 01 8F 01 85 0B A4 06
 (1628565842.924579)  can1  01310000   [4]  00 00 00 00
 (1628565842.933142)  can1  00000099   [4]  F9 0F FF 0F
 (1628565842.944821)  can1  02020080   [8]  BA BE BD BE BE BF BD BE
 (1628565842.952440)  can1  08000080   [2]  00 00
 (1628565842.952879)  can1  01800000   [8]  97 01 8E 01 84 0B A3 06
 (1628565842.953308)  can1  01310000   [4]  00 00 00 00
 (1628565842.961782)  can1  00000099   [4]  F8 0F FC 0F
 (1628565842.989836)  can1  08010080   [2]  00 00
 (1628565842.990376)  can1  01800000   [8]  97 01 8E 01 85 0B A3 06
 (1628565842.990843)  can1  01310000   [4]  00 00 00 00
 (1628565842.999370)  can1  00000099   [4]  FA 0F FF 0F
 (1628565842.999940)  can1  0000000A   [8]  20 46 52 4F 4E 54 20 20
 (1628565843.000375)  can1  00000004   [5]  11 85 60 33 00
 (1628565843.018009)  can1  08020080   [2]  ED 0C
 (1628565843.018444)  can1  01310000   [4]  00 00 00 00
 (1628565843.019008)  can1  01800000   [8]  95 01 90 01 86 0B A4 06
 (1628565843.019457)  can1  00000099   [4]  FA 0F FE 0F
 (1628565843.055635)  can1  08000080   [2]  00 00
 (1628565843.056199)  can1  01800000   [8]  97 01 8F 01 87 0B A2 06
 (1628565843.056640)  can1  01310000   [4]  00 00 00 00
 (1628565843.065377)  can1  00000099   [4]  FB 0F FD 0F
 (1628565843.072793)  can1  02020180   [8]  BC BE BD BE BD BE BD BD
 (1628565843.084271)  can1  08010080   [2]  00 00
 (1628565843.084788)  can1  01310000   [4]  00 00 00 00
 (1628565843.085269)  can1  01800000   [8]  95 01 8E 01 86 0B A5 06
 (1628565843.085694)  can1  00000099   [4]  F9 0F FF 0F
 (1628565843.086964)  can1  020C0180   [8]  00 00 00 00 00 00 00 00
 (1628565843.100086)  can1  0000000A   [8]  20 46 52 4F 4E 54 20 20
 (1628565843.100538)  can1  00000004   [5]  11 84 60 32 00
 (1628565843.112786)  can1  08020080   [2]  ED 0C
 (1628565843.113371)  can1  0000000C   [8]  30 30 3A 30 38 3A 32 33
 (1628565843.113678)  can1  00000008   [1]  00
 (1628565843.114254)  can1  0000000B   [8]  55 4C 52 32 30 32 31 20
 (1628565843.114788)  can1  0000000D   [8]  49 44 4C 45 20 20 20 20
 (1628565843.115359)  can1  01800000   [8]  96 01 8E 01 84 0B A3 06
 (1628565843.115940)  can1  01310000   [4]  00 00 00 00
 (1628565843.122136)  can1  02020280   [8]  BE BE BE BE BE BE BB BE
 (1628565843.123081)  can1  00000099   [4]  F6 0F FB 0F
 (1628565843.151241)  can1  08000080   [2]  00 00
 (1628565843.151819)  can1  01800000   [8]  96 01 8D 01 88 0B A4 06
 (1628565843.152249)  can1  01310000   [4]  00 00 00 00
 (1628565843.160790)  can1  00000099   [4]  F7 0F FF 0F
 (1628565843.179760)  can1  08010080   [2]  00 00
 (1628565843.180315)  can1  01800000   [8]  95 01 8F 01 86 0B A3 06
 (1628565843.180759)  can1  01310000   [4]  00 00 00 00
 (1628565843.189350)  can1  00000099   [4]  FA 0F FC 0F
 (1628565843.200329)  can1  0000000A   [8]  20 46 52 4F 4E 54 20 20
 (1628565843.200800)  can1  00000004   [5]  11 84 60 32 00
 (1628565843.217437)  can1  08020080   [2]  DF 0C
 (1628565843.217997)  can1  01800000   [8]  96 01 8E 01 85 0B A3 06
 (1628565843.218438)  can1  01310000   [4]  00 00 00 00
 (1628565843.227031)  can1  00000099   [4]  F9 0F FD 0F
 (1628565843.246087)  can1  08000080   [2]  00 00
 (1628565843.246636)  can1  01800000   [8]  96 01 8F 01 85 0B A3 06
 (1628565843.247069)  can1  01310000   [4]  00 00 00 00
 (1628565843.250703)  can1  02020380   [8]  BE BD BD BD BE BE BE BE
 (1628565843.255761)  can1  00000099   [4]  FB 0F FF 0F
 (1628565843.283979)  can1  08010080   [2]  00 00
 (1628565843.284537)  can1  01800000   [8]  95 01 8F 01 85 0B A4 06
 (1628565843.285130)  can1  01310000   [4]  00 00 00 00
 (1628565843.293490)  can1  00000099   [4]  F9 0F FD 0F
 (1628565843.300621)  can1  0000000A   [8]  20 46 52 4F 4E 54 20 20
 (1628565843.301433)  can1  00000004   [5]  11 84 60 32 00
 (1628565843.312299)  can1  08020080   [2]  EA 0C
 (1628565843.312887)  can1  01800000   [8]  95 01 8F 01 85 0B A4 06
 (1628565843.313287)  can1  01310000   [4]  00 00 00 00
 (1628565843.321861)  can1  00000099   [4]  FB 0F FF 0F
 (1628565843.349996)  can1  08000080   [2]  00 00
 (1628565843.350542)  can1  01800000   [8]  95 01 8F 01 86 0B A5 06
 (1628565843.350982)  can1  01310000   [4]  00 00 00 00
 (1628565843.359497)  can1  00000099   [4]  F7 0F FB 0F
 (1628565843.376901)  can1  02020480   [8]  BE BD BE BF CA BE BF BE
 (1628565843.383154)  can1  08010080   [2]  00 00
 (1628565843.383213)  can1  01800000   [8]  95 01 8F 01 85 0B A4 06
 (1628565843.383224)  can1  01310000   [4]  00 00 00 00
 (1628565843.386900)  can1  02030580   [8]  1E 1D 1D 1A 1E 1D 00 1D
 (1628565843.388221)  can1  00000099   [4]  FA 0F FD 0F
 (1628565843.400867)  can1  0000000A   [8]  20 46 52 4F 4E 54 20 20
 (1628565843.401313)  can1  00000004   [5]  11 84 60 32 00
 (1628565843.407111)  can1  08020080   [2]  EE 0C
 (1628565843.407678)  can1  01800000   [8]  96 01 90 01 85 0B A4 06
 (1628565843.408116)  can1  01310000   [4]  00 00 00 00
 (1628565843.416647)  can1  00000099   [4]  FD 0F FF 0F
 (1628565843.444924)  can1  08000080   [2]  00 00
 (1628565843.445511)  can1  01800000   [8]  95 01 8E 01 86 0B A4 06
 (1628565843.445903)  can1  01310000   [4]  00 00 00 00
 (1628565843.454428)  can1  00000099   [4]  FC 0F FF 0F
 (1628565843.473395)  can1  08010080   [2]  00 00
 (1628565843.473606)  can1  01310000   [4]  00 00 00 00
 (1628565843.474183)  can1  01800000   [8]  95 01 8E 01 86 0B A4 06
 (1628565843.474608)  can1  00000099   [4]  F9 0F FF 0F
 (1628565843.501136)  can1  0000000A   [8]  20 46 52 4F 4E 54 20 20
 (1628565843.501555)  can1  00000004   [5]  11 84 60 32 00
 (1628565843.510758)  can1  08020080   [2]  F6 0C
 (1628565843.511333)  can1  01800000   [8]  95 01 8E 01 85 0B A2 06
 (1628565843.511746)  can1  01310000   [4]  00 00 00 00
 (1628565843.520535)  can1  00000099   [4]  F7 0F FF 0F
 (1628565843.539353)  can1  08000080   [2]  00 00
 (1628565843.539886)  can1  01800000   [8]  94 01 8E 01 84 0B A3 06
 (1628565843.540326)  can1  01310000   [4]  00 00 00 00
 (1628565843.549121)  can1  00000099   [4]  FB 0F FD 0F
 (1628565843.554020)  can1  02020680   [8]  BE C0 C0 BE BE BF BD BE
 (1628565843.577257)  can1  08010080   [2]  00 00
 (1628565843.577706)  can1  01310000   [4]  00 00 00 00
 (1628565843.578259)  can1  01800000   [8]  95 01 8E 01 86 0B A4 06
 (1628565843.578684)  can1  00000099   [4]  F7 0F FD 0F
 (1628565843.601358)  can1  0000000A   [8]  20 46 52 4F 4E 54 20 20
 (1628565843.601822)  can1  00000004   [5]  11 84 60 32 00
 (1628565843.605766)  can1  08020080   [2]  ED 0C
 (1628565843.606204)  can1  01310000   [4]  00 00 00 00
 (1628565843.606771)  can1  01800000   [8]  95 01 8E 01 86 0B A4 06
 (1628565843.607193)  can1  00000099   [4]  FB 0F FF 0F
 (1628565843.617710)  can1  02030780   [8]  FF 1E 1D 1E 1E 1E 1E 1E
 (1628565843.626110)  can1  02020780   [8]  BA BE BE BE BE BD BE BE
 (1628565843.635022)  can1  0000000D   [8]  49 44 4C 45 20 20 20 20
 (1628565843.635570)  can1  0000000C   [8]  30 30 3A 30 38 3A 37 34
 (1628565843.635901)  can1  00000008   [1]  00
 (1628565843.636455)  can1  0000000B   [8]  55 4C 52 32 30 32 31 20
 (1628565843.644264)  can1  08000080   [2]  00 00
 (1628565843.644801)  can1  01800000   [8]  95 01 8E 01 86 0B A3 06
 (1628565843.645238)  can1  01310000   [4]  00 00 00 00
 (1628565843.653818)  can1  00000099   [4]  F9 0F FC 0F
 (1628565843.672788)  can1  08010080   [2]  00 00
 (1628565843.673344)  can1  01800000   [8]  96 01 8F 01 88 0B A4 06
 (1628565843.673790)  can1  01310000   [4]  00 00 00 00
 (1628565843.682384)  can1  00000099   [4]  F9 0F FF 0F
 (1628565843.701030)  can1  08020080   [2]  F0 0C
 (1628565843.701631)  can1  01800000   [8]  96 01 8F 01 83 0B A4 06
 (1628565843.702078)  can1  00000004   [5]  11 85 60 31 00
 (1628565843.702598)  can1  0000000A   [8]  20 46 52 4F 4E 54 20 20
 (1628565843.703060)  can1  01310000   [4]  00 00 00 00
 (1628565843.710830)  can1  00000099   [4]  F9 0F FD 0F
 (1628565843.739071)  can1  08000080   [2]  00 00
 (1628565843.739655)  can1  01800000   [8]  96 01 8E 01 85 0B A4 06
 (1628565843.740076)  can1  01310000   [4]  00 00 00 00
 (1628565843.745409)  can1  02020880   [8]  BE BE BD BF BE BD BB BA
 (1628565843.748792)  can1  00000099   [4]  FB 0F FB 0F
 (1628565843.767835)  can1  08010080   [2]  00 00
 (1628565843.768452)  can1  01800000   [8]  96 01 8E 01 86 0B A4 06
 (1628565843.768848)  can1  01310000   [4]  00 00 00 00
 (1628565843.777417)  can1  00000099   [4]  FA 0F FC 0F
 (1628565843.801880)  can1  0000000A   [8]  20 46 52 4F 4E 54 20 20
 (1628565843.802337)  can1  00000004   [5]  11 85 60 32 00
 (1628565843.805531)  can1  08020080   [2]  E8 0C
 (1628565843.806302)  can1  01800000   [8]  96 01 8E 01 86 0B A3 06
 (1628565843.806869)  can1  01310000   [4]  00 00 00 00
 (1628565843.815133)  can1  00000099   [4]  FA 0F FC 0F
 (1628565843.834171)  can1  08000080   [2]  00 00
 (1628565843.834749)  can1  01800000   [8]  95 01 8E 01 85 0B A3 06
 (1628565843.835178)  can1  01310000   [4]  00 00 00 00
 (1628565843.843974)  can1  00000099   [4]  FD 0F FE 0F
 (1628565843.856887)  can1  02010001   [1]  23
 (1628565843.872122)  can1  08010080   [2]  00 00
 (1628565843.872612)  can1  01310000   [4]  00 00 00 00
 (1628565843.873133)  can1  01800000   [8]  95 01 8D 01 86 0B A4 06
 (1628565843.873557)  can1  00000099   [4]  FD 0F FF 0F
 (1628565843.874800)  can1  02070081   [8]  00 00 00 00 08 00 00 00
 (1628565843.900567)  can1  08020080   [2]  E5 0C
 (1628565843.901112)  can1  01800000   [8]  96 01 8D 01 86 0B A3 06
 (1628565843.901559)  can1  01310000   [4]  00 00 00 00
 (1628565843.902147)  can1  0000000A   [8]  20 46 52 4F 4E 54 20 20
 (1628565843.902602)  can1  00000004   [5]  11 85 60 32 00
 (1628565843.910644)  can1  00000099   [4]  FA 0F FE 0F
 (1628565843.921069)  can1  02020980   [8]  B8 B9 BD BC B9 BD BE BD
 (1628565843.929897)  can1  08000080   [2]  00 00
 (1628565843.930409)  can1  01800000   [8]  96 01 8D 01 86 0B A5 06
 (1628565843.930870)  can1  01310000   [4]  00 00 00 00
 (1628565843.934430)  can1  02030A80   [8]  1E 1D 1E 1D 1D FF 1E 1D
 (1628565843.939507)  can1  00000099   [4]  FA 0F FF 0F
 (1628565843.967526)  can1  08010080   [2]  00 00
 (1628565843.968090)  can1  01800000   [8]  96 01 8E 01 84 0B A3 06
 (1628565843.968530)  can1  01310000   [4]  00 00 00 00
 (1628565843.977201)  can1  00000099   [4]  F9 0F FD 0F
 (1628565843.995461)  can1  08020080   [2]  EF 0C
 (1628565843.996030)  can1  01800000   [8]  95 01 8E 01 85 0B A5 06
 (1628565843.996463)  can1  01310000   [4]  00 00 00 00
 (1628565844.002428)  can1  0000000A   [8]  20 46 52 4F 4E 54 20 20
 (1628565844.002888)  can1  00000004   [5]  11 85 60 32 00
 (1628565844.005477)  can1  00000099   [4]  F9 0F FF 0F
 (1628565844.033367)  can1  08000080   [2]  00 00
 (1628565844.033928)  can1  01800000   [8]  96 01 8D 01 85 0B A2 06
 (1628565844.034369)  can1  01310000   [4]  00 00 00 00
 (1628565844.034813)  can1  00000099   [4]  F7 0F FF 0F
 (1628565844.049293)  can1  02020A80   [8]  BE BD BE BE BE BF BE C0
 (1628565844.061957)  can1  08010080   [2]  00 00
 (1628565844.062383)  can1  01310000   [4]  00 00 00 00
 (1628565844.062976)  can1  01800000   [8]  96 01 8D 01 83 0B A3 06
 (1628565844.063366)  can1  00000099   [4]  FA 0F FB 0F
 (1628565844.099350)  can1  08020080   [2]  E7 0C
 (1628565844.099905)  can1  01800000   [8]  95 01 8E 01 86 0B A4 06
 (1628565844.100353)  can1  01310000   [4]  00 00 00 00
 (1628565844.102726)  can1  0000000A   [8]  20 46 52 4F 4E 54 20 20
 (1628565844.103134)  can1  00000004   [5]  11 85 60 32 00
 (1628565844.109295)  can1  00000099   [4]  F7 0F FF 0F
 (1628565844.128067)  can1  08000080   [2]  00 00
 (1628565844.128684)  can1  01800000   [8]  94 01 8E 01 83 0B A4 06
 (1628565844.129068)  can1  01310000   [4]  00 00 00 00
 (1628565844.137642)  can1  00000099   [4]  F7 0F FD 0F
 (1628565844.156746)  can1  0000000D   [8]  49 44 4C 45 20 20 20 20
 (1628565844.157304)  can1  0000000C   [8]  30 30 3A 30 39 3A 32 37
 (1628565844.157626)  can1  00000008   [1]  00
 (1628565844.158182)  can1  0000000B   [8]  55 4C 52 32 30 32 31 20
 (1628565844.166470)  can1  08010080   [2]  00 00
 (1628565844.167013)  can1  01800000   [8]  95 01 8F 01 86 0B A3 06
 (1628565844.167464)  can1  01310000   [4]  00 00 00 00
 (1628565844.171856)  can1  02020B80   [8]  BE BE BE BE BE BE BE BE
 (1628565844.176243)  can1  00000099   [4]  F9 0F FE 0F
 (1628565844.178505)  can1  020C0281   [4]  00 00 00 00
 (1628565844.194710)  can1  08020080   [2]  F7 0C
 (1628565844.195216)  can1  01310000   [4]  00 00 00 00
 (1628565844.195703)  can1  01800000   [8]  95 01 8F 01 85 0B A4 06
 (1628565844.196130)  can1  00000099   [4]  F7 0F FD 0F
 (1628565844.202949)  can1  0000000A   [8]  20 46 52 4F 4E 54 20 20
 (1628565844.203402)  can1  00000004   [5]  11 85 60 32 00
 (1628565844.224216)  can1  08000080   [2]  00 00
 (1628565844.224286)  can1  01800000   [8]  95 01 8F 01 86 0B A3 06
 (1628565844.224695)  can1  01310000   [4]  00 00 00 00
 (1628565844.232332)  can1  02020C81   [4]  BE BE BE BE
 (1628565844.234045)  can1  00000099   [4]  FD 0F FC 0F
 (1628565844.261644)  can1  08010080   [2]  00 00
 (1628565844.262199)  can1  01800000   [8]  95 01 8F 01 88 0B A3 06
 (1628565844.262634)  can1  01310000   [4]  00 00 00 00
 (1628565844.271163)  can1  00000099   [4]  F9 0F FC 0F
 (1628565844.289637)  can1  08020080   [2]  E3 0C
 (1628565844.290206)  can1  01800000   [8]  96 01 8E 01 86 0B A3 06
 (1628565844.290622)  can1  01310000   [4]  00 00 00 00
 (1628565844.291048)  can1  00000099   [4]  FA 0F FD 0F
 (1628565844.303200)  can1  0000000A   [8]  20 46 52 4F 4E 54 20 20
 (1628565844.303732)  can1  00000004   [5]  11 85 60 32 00
 (1628565844.327741)  can1  08000080   [2]  00 00
 (1628565844.328291)  can1  01800000   [8]  96 01 8E 01 85 0B A2 06
 (1628565844.328732)  can1  01310000   [4]  00 00 00 00
 (1628565844.337306)  can1  00000099   [4]  F9 0F FD 0F
 (1628565844.353310)  can1  02020080   [8]  BA BE BD BE BE BF BD BE
 (1628565844.356433)  can1  08010080   [2]  00 00
 (1628565844.357105)  can1  01800000   [8]  95 01 8E 01 85 0B A3 06
 (1628565844.357403)  can1  01310000   [4]  00 00 00 00
 (1628565844.365974)  can1  00000099   [4]  F7 0F FB 0F
 (1628565844.393714)  can1  08020080   [2]  E3 0C
 (1628565844.394161)  can1  01310000   [4]  00 00 00 00
 (1628565844.394727)  can1  01800000   [8]  96 01 8E 01 87 0B A3 06
 (1628565844.395150)  can1  00000099   [4]  F8 0F FC 0F
 (1628565844.403460)  can1  0000000A   [8]  20 46 52 4F 4E 54 20 20
 (1628565844.403929)  can1  00000004   [5]  11 85 60 32 00
 (1628565844.422750)  can1  08000080   [2]  00 00
 (1628565844.423338)  can1  01800000   [8]  96 01 8E 01 86 0B A3 06
 (1628565844.423752)  can1  01310000   [4]  00 00 00 00
 (1628565844.432307)  can1  00000099   [4]  F9 0F FE 0F
 (1628565844.460506)  can1  08010080   [2]  00 00
 (1628565844.461052)  can1  01800000   [8]  95 01 8D 01 85 0B A4 06
 (1628565844.461501)  can1  01310000   [4]  00 00 00 00
 (1628565844.465933)  can1  02020180   [8]  BC BE BD BE BD BE BD BD
 (1628565844.470228)  can1  00000099   [4]  FA 0F FD 0F
 (1628565844.475456)  can1  02031080   [8]  1D 1D 1D 1D 1D 1D FF 1D
 (1628565844.489103)  can1  08020080   [2]  DE 0C
 (1628565844.489688)  can1  01800000   [8]  96 01 8E 01 86 0B A2 06
 (1628565844.490106)  can1  01310000   [4]  00 00 00 00
 (1628565844.498672)  can1  00000099   [4]  FA 0F FD 0F
 (1628565844.503733)  can1  0000000A   [8]  20 46 52 4F 4E 54 20 20
 (1628565844.504193)  can1  00000004   [5]  11 86 60 32 00
 (1628565844.517928)  can1  08000080   [2]  00 00
 (1628565844.518485)  can1  01800000   [8]  96 01 8E 01 85 0B A3 06
 (1628565844.518927)  can1  01310000   [4]  00 00 00 00
 (1628565844.527728)  can1  00000099   [4]  F7 0F FC 0F
 (1628565844.530352)  can1  02020280   [8]  BE BE BE BE BE BE BB BE
 (1628565844.555950)  can1  08010080   [2]  00 00
 (1628565844.556387)  can1  01310000   [4]  00 00 00 00
 (1628565844.557052)  can1  01800000   [8]  96 01 8D 01 85 0B A4 06
 (1628565844.557366)  can1  00000099   [4]  F9 0F FD 0F
 (1628565844.584321)  can1  08020080   [2]  E4 0C
 (1628565844.584873)  can1  01800000   [8]  97 01 8D 01 83 0B A4 06
 (1628565844.585313)  can1  01310000   [4]  00 00 00 00
 (1628565844.594046)  can1  00000099   [4]  F9 0F FB 0F
 (1628565844.604017)  can1  0000000A   [8]  20 46 52 4F 4E 54 20 20
 (1628565844.604475)  can1  00000004   [5]  11 86 61 32 00
 (1628565844.622251)  can1  08000080   [2]  00 00
 (1628565844.622806)  can1  01800000   [8]  97 01 8E 01 83 0B A4 06
 (1628565844.623252)  can1  01310000   [4]  00 00 00 00
 (1628565844.623671)  can1  00000099   [4]  FA 0F FD 0F
 (1628565844.650701)  can1  08010080   [2]  00 00
 (1628565844.651283)  can1  01800000   [8]  96 01 8F 01 86 0B A4 06
 (1628565844.651719)  can1  01310000   [4]  00 00 00 00
 (1628565844.658191)  can1  02020380   [8]  BE BD BD BD BE BE BE BE
 (1628565844.660613)  can1  00000099   [4]  FC 0F FD 0F
 (1628565844.678546)  can1  0000000D   [8]  49 44 4C 45 20 20 20 20
 (1628565844.679105)  can1  0000000C   [8]  30 30 3A 30 39 3A 37 38
 (1628565844.679411)  can1  00000008   [1]  00
 (1628565844.679969)  can1  0000000B   [8]  55 4C 52 32 30 32 31 20
 (1628565844.688896)  can1  08020080   [2]  CF 0C
 (1628565844.689462)  can1  01800000   [8]  96 01 8F 01 85 0B A3 06
 (1628565844.689897)  can1  01310000   [4]  00 00 00 00
 (1628565844.698479)  can1  00000099   [4]  F7 0F FC 0F
 (1628565844.704297)  can1  0000000A   [8]  20 46 52 4F 4E 54 20 20
 (1628565844.704752)  can1  00000004   [5]  11 86 61 2F 00
 (1628565844.717760)  can1  08000080   [2]  00 00
 (1628565844.718385)  can1  01800000   [8]  96 01 8E 01 85 0B A4 06
 (1628565844.718751)  can1  01310000   [4]  00 00 00 00
 (1628565844.727340)  can1  00000099   [4]  FA 0F FB 0F
 (1628565844.746422)  can1  08010080   [2]  00 00
 (1628565844.747009)  can1  01800000   [8]  97 01 8E 01 85 0B A4 06
 (1628565844.747442)  can1  01310000   [4]  00 00 00 00
 (1628565844.755944)  can1  00000099   [4]  F7 0F FF 0F
 (1628565844.769516)  can1  02020480   [8]  BE BD BE BF CA BE BF BE
 (1628565844.783997)  can1  08020080   [2]  EB 0C
 (1628565844.784545)  can1  01800000   [8]  96 01 8F 01 85 0B A4 06
 (1628565844.785071)  can1  01310000   [4]  00 00 00 00
 (1628565844.793590)  can1  00000099   [4]  FA 0F FC 0F
 (1628565844.804577)  can1  0000000A   [8]  20 46 52 4F 4E 54 20 20
 (1628565844.805038)  can1  00000004   [5]  11 85 61 2F 00
 (1628565844.812850)  can1  08000080   [2]  00 00
 (1628565844.813411)  can1  01800000   [8]  95 01 8E 01 84 0B A3 06
 (1628565844.813850)  can1  01310000   [4]  00 00 00 00
 (1628565844.822668)  can1  00000099   [4]  F7 0F FC 0F
 (1628565844.833219)  can1  02010001   [1]  23
 (1628565844.850817)  can1  08010080   [2]  00 00
 (1628565844.851303)  can1  01310000   [4]  00 00 00 00
 (1628565844.851812)  can1  01800000   [8]  96 01 8E 01 88 0B A4 06
 (1628565844.852241)  can1  00000099   [4]  F8 0F FF 0F
 (1628565844.853357)  can1  02070081   [8]  00 00 00 00 08 00 00 00
 (1628565844.879235)  can1  08020080   [2]  D9 0C
 (1628565844.879801)  can1  01800000   [8]  95 01 8F 01 86 0B A4 06
 (1628565844.880244)  can1  01310000   [4]  00 00 00 00
 (1628565844.889077)  can1  00000099   [4]  FD 0F FB 0F
 (1628565844.904857)  can1  0000000A   [8]  20 46 52 4F 4E 54 20 20
 (1628565844.905285)  can1  00000004   [5]  11 86 61 2F 00
 (1628565844.917639)  can1  08000080   [2]  00 00
 (1628565844.918221)  can1  01800000   [8]  95 01 8F 01 85 0B A3 06
 (1628565844.918674)  can1  01310000   [4]  00 00 00 00
 (1628565844.927213)  can1  00000099   [4]  FC 0F FB 0F
 (1628565844.946200)  can1  08010080   [2]  00 00
 (1628565844.946762)  can1  01800000   [8]  95 01 8E 01 85 0B A4 06
 (1628565844.947202)  can1  01310000   [4]  00 00 00 00
 (1628565844.955789)  can1  00000099   [4]  F8 0F FF 0F
 (1628565844.967783)  can1  02020580   [8]  BE BE BE BE BE BE BE BF
 (1628565844.974681)  can1  08020080   [2]  D8 0C
 (1628565844.975192)  can1  01800000   [8]  95 01 8F 01 85 0B A3 06
 (1628565844.975667)  can1  01310000   [4]  00 00 00 00
 (1628565844.984239)  can1  00000099   [4]  FC 0F FE 0F
 (1628565845.005082)  can1  0000000A   [8]  20 46 52 4F 4E 54 20 20
 (1628565845.005532)  can1  00000004   [5]  11 85 61 2F 00
 (1628565845.012741)  can1  08000080   [2]  00 00
 (1628565845.013295)  can1  01800000   [8]  96 01 8E 01 84 0B A3 06
 (1628565845.013738)  can1  01310000   [4]  00 00 00 00
 (1628565845.022324)  can1  00000099   [4]  F7 0F FC 0F
 (1628565845.026030)  can1  02020680   [8]  BE C0 C0 BE BE BF BD BE
 (1628565845.041508)  can1  08010080   [2]  00 00
 (1628565845.042068)  can1  01800000   [8]  96 01 8E 01 86 0B A3 06
 (1628565845.042543)  can1  01310000   [4]  00 00 00 00
 (1628565845.045406)  can1  02030180   [8]  1D 1D 1D 1D 1D 1D FF FF
 (1628565845.051445)  can1  00000099   [4]  F7 0F FC 0F
 (1628565845.079300)  can1  08020080   [2]  DC 0C
 (1628565845.079868)  can1  01800000   [8]  96 01 8F 01 86 0B A4 06
 (1628565845.080304)  can1  01310000   [4]  00 00 00 00
 (1628565845.089084)  can1  00000099   [4]  FC 0F FF 0F
 (1628565845.105338)  can1  0000000A   [8]  20 46 52 4F 4E 54 20 20
 (1628565845.105806)  can1  00000004   [5]  11 86 61 2F 00
 (1628565845.108388)  can1  08000080   [2]  00 00
 (1628565845.109039)  can1  01800000   [8]  95 01 8E 01 88 0B A4 06
 (1628565845.109547)  can1  01310000   [4]  00 00 00 00
 (1628565845.117993)  can1  00000099   [4]  F8 0F FF 0F
 (1628565845.137664)  can1  02020780   [8]  BA BE BE BE BE BD BE BE
 (1628565845.146473)  can1  08010080   [2]  00 00
 (1628565845.147039)  can1  01800000   [8]  97 01 8D 01 84 0B A3 06
 (1628565845.147562)  can1  01310000   [4]  00 00 00 00
 (1628565845.156095)  can1  00000099   [4]  F7 0F FF 0F
 (1628565845.174842)  can1  08020080   [2]  D8 0C
 (1628565845.175401)  can1  01800000   [8]  96 01 8F 01 85 0B A3 06
 (1628565845.175841)  can1  01310000   [4]  00 00 00 00
 (1628565845.184492)  can1  00000099   [4]  FA 0F FC 0F
 (1628565845.200297)  can1  0000000D   [8]  49 44 4C 45 20 20 20 20
 (1628565845.200874)  can1  0000000C   [8]  30 30 3A 31 30 3A 33 31
 (1628565845.201179)  can1  00000008   [1]  00
 (1628565845.201721)  can1  0000000B   [8]  55 4C 52 32 30 32 31 20
 (1628565845.204298)  can1  08000080   [2]  00 00
 (1628565845.204842)  can1  01800000   [8]  96 01 8E 01 86 0B A4 06
 (1628565845.205281)  can1  01310000   [4]  00 00 00 00
 (1628565845.205844)  can1  0000000A   [8]  20 46 52 4F 4E 54 20 20
 (1628565845.206294)  can1  00000004   [5]  11 86 61 30 00
 (1628565845.214114)  can1  00000099   [4]  FB 0F FD 0F
 (1628565845.242452)  can1  08010080   [2]  00 00
 (1628565845.243030)  can1  01800000   [8]  96 01 8E 01 86 0B A3 06
 (1628565845.243475)  can1  01310000   [4]  00 00 00 00
 (1628565845.251901)  can1  00000099   [4]  FD 0F FB 0F
 (1628565845.265866)  can1  02020880   [8]  BE BE BD BF BE BE BB BA
 (1628565845.270330)  can1  08020080   [2]  DE 0C
 (1628565845.270752)  can1  01310000   [4]  00 00 00 00
 (1628565845.271320)  can1  01800000   [8]  96 01 8D 01 86 0B A4 06
 (1628565845.271804)  can1  00000099   [4]  FC 0F FD 0F
 (1628565845.305841)  can1  0000000A   [8]  20 46 52 4F 4E 54 20 20
 (1628565845.306299)  can1  00000004   [5]  11 86 61 2F 00
 (1628565845.307906)  can1  08000080   [2]  00 00
 (1628565845.308461)  can1  01800000   [8]  95 01 8E 01 85 0B A3 06
 (1628565845.308910)  can1  01310000   [4]  00 00 00 00
 (1628565845.309334)  can1  00000099   [4]  F7 0F FD 0F
 (1628565845.329722)  can1  02020980   [8]  B8 B9 BD BC B9 BD BE BD
 (1628565845.336286)  can1  08010080   [2]  00 00
 (1628565845.336843)  can1  01800000   [8]  96 01 8E 01 84 0B A3 06
 (1628565845.337305)  can1  01310000   [4]  00 00 00 00
 (1628565845.339995)  can1  02030480   [8]  1D 1D 1E 1E 1E 1E 1E 1E
 (1628565845.345881)  can1  00000099   [4]  F9 0F FB 0F
 (1628565845.373377)  can1  08020080   [2]  E4 0C
 (1628565845.373816)  can1  01310000   [4]  00 00 00 00
 (1628565845.374377)  can1  01800000   [8]  95 01 8E 01 86 0B A4 06
 (1628565845.374814)  can1  00000099   [4]  FC 0F FD 0F
 (1628565845.401759)  can1  08000080   [2]  00 00
 (1628565845.402318)  can1  01800000   [8]  96 01 8E 01 85 0B A3 06
 (1628565845.402761)  can1  01310000   [4]  00 00 00 00
 (1628565845.406076)  can1  0000000A   [8]  20 46 52 4F 4E 54 20 20
 (1628565845.406537)  can1  00000004   [5]  11 86 61 2F 00
 (1628565845.411632)  can1  00000099   [4]  FC 0F FC 0F
 (1628565845.439400)  can1  08010080   [2]  00 00
 (1628565845.439944)  can1  01800000   [8]  96 01 8E 01 87 0B A5 06
 (1628565845.440391)  can1  01310000   [4]  00 00 00 00
 (1628565845.443891)  can1  02020A80   [8]  BE BD BE BE BE BF BE C0
 (1628565845.449217)  can1  00000099   [4]  F9 0F FE 0F
 (1628565845.467575)  can1  08020080   [2]  DC 0C
 (1628565845.468134)  can1  01800000   [8]  96 01 8E 01 87 0B A4 06
 (1628565845.468573)  can1  01310000   [4]  00 00 00 00
 (1628565845.477099)  can1  00000099   [4]  FB 0F FD 0F
 (1628565845.504970)  can1  08000080   [2]  00 00
 (1628565845.505557)  can1  01800000   [8]  96 01 8E 01 84 0B A3 06
 (1628565845.505976)  can1  01310000   [4]  00 00 00 00
 (1628565845.506519)  can1  0000000A   [8]  20 46 52 4F 4E 54 20 20
 (1628565845.507042)  can1  00000004   [5]  11 86 61 2F 00
 (1628565845.507398)  can1  00000099   [4]  F7 0F FD 0F
 (1628565845.533536)  can1  08010080   [2]  00 00
 (1628565845.533977)  can1  01310000   [4]  00 00 00 00
 (1628565845.534573)  can1  01800000   [8]  96 01 8F 01 85 0B A4 06
 (1628565845.534962)  can1  00000099   [4]  F9 0F FF 0F
 (1628565845.561663)  can1  08020080   [2]  DE 0C
 (1628565845.562204)  can1  01800000   [8]  95 01 8D 01 85 0B A4 06
 (1628565845.562655)  can1  01310000   [4]  00 00 00 00
 (1628565845.570461)  can1  02020B80   [8]  BE BE BE BE BE BE BE BE
 (1628565845.571303)  can1  00000099   [4]  F9 0F FF 0F
 (1628565845.580347)  can1  02030780   [8]  FF 1E 1D 1E 1E 1E 1E 1E
 (1628565845.599430)  can1  08000080   [2]  00 00
 (1628565845.600059)  can1  01800000   [8]  96 01 8E 01 84 0B A4 06
 (1628565845.600406)  can1  01310000   [4]  00 00 00 00
 (1628565845.606561)  can1  0000000A   [8]  20 46 52 4F 4E 54 20 20
 (1628565845.607013)  can1  00000004   [5]  11 86 61 2F 00
 (1628565845.609107)  can1  00000099   [4]  F9 0F FB 0F
 (1628565845.627972)  can1  08010080   [2]  00 00
 (1628565845.628556)  can1  01800000   [8]  96 01 8E 01 87 0B A3 06
 (1628565845.629046)  can1  01310000   [4]  00 00 00 00
 (1628565845.635133)  can1  02020C81   [4]  BE BE BE BE
 (1628565845.637607)  can1  00000099   [4]  F9 0F FD 0F
 (1628565845.665104)  can1  08020080   [2]  D7 0C
 (1628565845.665563)  can1  01310000   [4]  00 00 00 00
 (1628565845.666109)  can1  01800000   [8]  95 01 8E 01 85 0B A2 06
 (1628565845.666529)  can1  00000099   [4]  FA 0F FF 0F
 (1628565845.693509)  can1  08000080   [2]  00 00
 (1628565845.694059)  can1  01800000   [8]  95 01 8E 01 85 0B A4 06
 (1628565845.694501)  can1  01310000   [4]  00 00 00 00
 (1628565845.703046)  can1  00000099   [4]  F6 0F FF 0F
 (1628565845.706894)  can1  0000000A   [8]  20 46 52 4F 4E 54 20 20
 (1628565845.707290)  can1  00000004   [5]  11 86 61 2F 00
 (1628565845.722015)  can1  0000000D   [8]  49 44 4C 45 20 20 20 20
 (1628565845.722600)  can1  0000000C   [8]  30 30 3A 31 30 3A 38 33
 (1628565845.722919)  can1  00000008   [1]  00
 (1628565845.723486)  can1  0000000B   [8]  55 4C 52 32 30 32 31 20
 (1628565845.732031)  can1  08010080   [2]  00 00
 (1628565845.732581)  can1  01800000   [8]  96 01 8E 01 86 0B A4 06
 (1628565845.733058)  can1  01310000   [4]  00 00 00 00
 (1628565845.741545)  can1  00000099   [4]  F9 0F FC 0F
 (1628565845.750314)  can1  02020080   [8]  BA BE BD BE BE BF BD BE
 (1628565845.760031)  can1  08020080   [2]  D2 0C
 (1628565845.760470)  can1  01310000   [4]  00 00 00 00
 (1628565845.761097)  can1  01800000   [8]  96 01 8E 01 86 0B A4 06
 (1628565845.761444)  can1  00000099   [4]  FD 0F FF 0F
 (1628565845.797655)  can1  08000080   [2]  00 00
 (1628565845.798200)  can1  01800000   [8]  96 01 8F 01 86 0B A3 06
 (1628565845.798645)  can1  01310000   [4]  00 00 00 00
 (1628565845.807054)  can1  0000000A   [8]  20 46 52 4F 4E 54 20 20
 (1628565845.807519)  can1  00000004   [5]  11 85 61 2F 00
 (1628565845.808036)  can1  00000099   [4]  F7 0F FE 0F
 (1628565845.826296)  can1  08010080   [2]  00 00
 (1628565845.826902)  can1  01800000   [8]  96 01 8E 01 83 0B A4 06
 (1628565845.827294)  can1  01310000   [4]  00 00 00 00
 (1628565845.827712)  can1  00000099   [4]  F7 0F FB 0F
 (1628565845.863646)  can1  08020080   [2]  DD 0C
 (1628565845.864204)  can1  01800000   [8]  96 01 8E 01 87 0B A5 06
 (1628565845.864649)  can1  01310000   [4]  00 00 00 00
 (1628565845.873223)  can1  00000099   [4]  FD 0F FF 0F
 (1628565845.874442)  can1  02010001   [1]  23
 (1628565845.876653)  can1  02030A80   [8]  1E 1D 1E 1D 1D FF 1E 1D
 (1628565845.892440)  can1  08000080   [2]  00 00
 (1628565845.893036)  can1  01800000   [8]  97 01 8E 01 86 0B A3 06
 (1628565845.893437)  can1  01310000   [4]  00 00 00 00
 (1628565845.896415)  can1  02070081   [8]  00 00 00 00 08 00 00 00
 (1628565845.902080)  can1  00000099   [4]  FA 0F FC 0F
 (1628565845.907294)  can1  0000000A   [8]  20 46 52 4F 4E 54 20 20
 (1628565845.907741)  can1  00000004   [5]  11 86 61 2F 00
 (1628565845.921070)  can1  08010080   [2]  00 00
 (1628565845.921636)  can1  01800000   [8]  96 01 8F 01 86 0B A4 06
 (1628565845.922073)  can1  01310000   [4]  00 00 00 00
 (1628565845.930607)  can1  00000099   [4]  F9 0F FD 0F
 (1628565845.938648)  can1  02020180   [8]  BC BE BD BE BD BE BD BD
 (1628565845.958416)  can1  08020080   [2]  DD 0C
 (1628565845.958980)  can1  01800000   [8]  95 01 8E 01 86 0B A4 06
 (1628565845.959417)  can1  01310000   [4]  00 00 00 00
 (1628565845.967958)  can1  00000099   [4]  FA 0F FB 0F
 (1628565845.986648)  can1  08000080   [2]  00 00
 (1628565845.987210)  can1  01800000   [8]  96 01 8E 01 83 0B A4 06
 (1628565845.987639)  can1  01310000   [4]  00 00 00 00
 (1628565845.988062)  can1  00000099   [4]  FB 0F FD 0F
 (1628565846.007542)  can1  0000000A   [8]  20 46 52 4F 4E 54 20 20
 (1628565846.007985)  can1  00000004   [5]  11 86 61 2F 00
 (1628565846.024383)  can1  08010080   [2]  00 00
 (1628565846.024819)  can1  01310000   [4]  00 00 00 00
 (1628565846.025390)  can1  01800000   [8]  96 01 8E 01 86 0B A5 06
 (1628565846.025809)  can1  00000099   [4]  FD 0F FB 0F
 (1628565846.050021)  can1  02020280   [8]  BE BE BE BE BE BE BB BE
 (1628565846.052649)  can1  08020080   [2]  D0 0C
 (1628565846.053177)  can1  01800000   [8]  96 01 8E 01 85 0B A3 06
 (1628565846.053627)  can1  01310000   [4]  00 00 00 00
 (1628565846.062148)  can1  00000099   [4]  FC 0F FF 0F
 (1628565846.090207)  can1  08000080   [2]  00 00
 (1628565846.090771)  can1  01800000   [8]  97 01 8E 01 84 0B A4 06
 (1628565846.091210)  can1  01310000   [4]  00 00 00 00
 (1628565846.099737)  can1  00000099   [4]  F7 0F FF 0F
 (1628565846.107807)  can1  0000000A   [8]  20 46 52 4F 4E 54 20 20
 (1628565846.108259)  can1  00000004   [5]  11 86 61 2F 00
 (1628565846.114573)  can1  02030C80   [8]  1D FF 1E 1E FF 1E 1D 1E
 (1628565846.119012)  can1  08010080   [2]  00 00
 (1628565846.119555)  can1  01800000   [8]  95 01 8E 01 83 0B A4 06
 (1628565846.119999)  can1  01310000   [4]  00 00 00 00
 (1628565846.124758)  can1  02020380   [8]  BE BD BD BD BE BE BE BE
 (1628565846.128857)  can1  00000099   [4]  FB 0F FF 0F
 (1628565846.156466)  can1  08020080   [2]  D2 0C
 (1628565846.157044)  can1  01800000   [8]  96 01 8E 01 85 0B A3 06
 (1628565846.157458)  can1  01310000   [4]  00 00 00 00
 (1628565846.166027)  can1  00000099   [4]  FA 0F FC 0F
 (1628565846.185014)  can1  08000080   [2]  00 00
 (1628565846.185547)  can1  01800000   [8]  96 01 8F 01 86 0B A3 06
 (1628565846.186002)  can1  01310000   [4]  00 00 00 00
 (1628565846.194553)  can1  00000099   [4]  F7 0F FE 0F
 (1628565846.208056)  can1  0000000A   [8]  20 46 52 4F 4E 54 20 20
 (1628565846.208530)  can1  00000004   [5]  11 86 61 2F 00
 (1628565846.222950)  can1  08010080   [2]  00 00
 (1628565846.223498)  can1  01800000   [8]  96 01 8E 01 84 0B A3 06
 (1628565846.223940)  can1  01310000   [4]  00 00 00 00
 (1628565846.232449)  can1  00000099   [4]  F9 0F FC 0F
 (1628565846.242269)  can1  02020480   [8]  BE BD BE BF CA BE BF BE
 (1628565846.243789)  can1  0000000D   [8]  49 44 4C 45 20 20 20 20
 (1628565846.244314)  can1  0000000C   [8]  30 30 3A 31 31 3A 33 36
 (1628565846.244611)  can1  00000008   [1]  00
 (1628565846.245157)  can1  0000000B   [8]  55 4C 52 32 30 32 31 20
 (1628565846.251607)  can1  08020080   [2]  CA 0C
 (1628565846.252183)  can1  01800000   [8]  97 01 8E 01 85 0B A3 06
 (1628565846.252586)  can1  01310000   [4]  00 00 00 00
 (1628565846.261142)  can1  00000099   [4]  FA 0F FF 0F
 (1628565846.289272)  can1  08000080   [2]  00 00
 (1628565846.289867)  can1  01800000   [8]  96 01 8D 01 85 0B A4 06
 (1628565846.290268)  can1  01310000   [4]  00 00 00 00
 (1628565846.298796)  can1  00000099   [4]  F7 0F FE 0F
 (1628565846.308313)  can1  0000000A   [8]  20 46 52 4F 4E 54 20 20
 (1628565846.308793)  can1  00000004   [5]  11 86 61 2E 00
 (1628565846.317922)  can1  08010080   [2]  00 00
 (1628565846.318519)  can1  01800000   [8]  96 01 90 01 85 0B A3 06
 (1628565846.318920)  can1  01310000   [4]  00 00 00 00
 (1628565846.327501)  can1  00000099   [4]  FC 0F FC 0F
 (1628565846.346142)  can1  08020080   [2]  D9 0C
 (1628565846.346694)  can1  01800000   [8]  96 01 8E 01 85 0B A5 06
 (1628565846.347150)  can1  01310000   [4]  00 00 00 00
 (1628565846.355707)  can1  00000099   [4]  F7 0F FA 0F
 (1628565846.383917)  can1  08000080   [2]  00 00
 (1628565846.384472)  can1  01800000   [8]  95 01 8E 01 87 0B A4 06
 (1628565846.384921)  can1  01310000   [4]  00 00 00 00
 (1628565846.393443)  can1  00000099   [4]  FB 0F FF 0F
 (1628565846.408579)  can1  0000000A   [8]  20 46 52 4F 4E 54 20 20
 (1628565846.409425)  can1  00000004   [5]  11 86 61 2E 00
 (1628565846.412609)  can1  08010080   [2]  00 00
 (1628565846.413258)  can1  01800000   [8]  96 01 8F 01 86 0B A6 06
 (1628565846.413856)  can1  01310000   [4]  00 00 00 00
 (1628565846.419210)  can1  02020680   [8]  BE C0 C0 BE BE BF BD BE
 (1628565846.422287)  can1  00000099   [4]  FC 0F FE 0F
 (1628565846.429162)  can1  02030F80   [8]  FF 1E 1E 1E 1E 1E 1E 1E
 (1628565846.450281)  can1  08020080   [2]  D6 0C
 (1628565846.450851)  can1  01800000   [8]  96 01 8F 01 85 0B A6 06
 (1628565846.451277)  can1  01310000   [4]  00 00 00 00
 (1628565846.459863)  can1  00000099   [4]  F6 0F FD 0F
 (1628565846.478857)  can1  08000080   [2]  00 00
 (1628565846.479430)  can1  01800000   [8]  96 01 8F 01 87 0B A7 06
 (1628565846.479857)  can1  01310000   [4]  00 00 00 00
 (1628565846.488397)  can1  00000099   [4]  FC 0F FF 0F
 (1628565846.508844)  can1  0000000A   [8]  20 46 52 4F 4E 54 20 20
 (1628565846.509297)  can1  00000004   [5]  11 86 61 2F 00
 (1628565846.516884)  can1  08010080   [2]  00 00
 (1628565846.517921)  can1  01800000   [8]  96 01 8F 01 86 0B A5 06
 (1628565846.517957)  can1  01310000   [4]  00 00 00 00
 (1628565846.526470)  can1  00000099   [4]  F9 0F FD 0F
 (1628565846.545235)  can1  08020080   [2]  C8 0C
 (1628565846.545742)  can1  01800000   [8]  96 01 8F 01 85 0B A6 06
 (1628565846.546185)  can1  01310000   [4]  00 00 00 00
 (1628565846.546906)  can1  02020780   [8]  BA BE BE BE BE BD BE BE
 (1628565846.554791)  can1  00000099   [4]  F7 0F FC 0F
 (1628565846.582576)  can1  08000080   [2]  00 00
 (1628565846.583150)  can1  01800000   [8]  96 01 8E 01 86 0B A5 06
 (1628565846.583584)  can1  01310000   [4]  00 00 00 00
 (1628565846.584018)  can1  00000099   [4]  FB 0F FC 0F
 (1628565846.609129)  can1  0000000A   [8]  20 46 52 4F 4E 54 20 20
 (1628565846.609581)  can1  00000004   [5]  11 86 61 2E 00
 (1628565846.611105)  can1  08010080   [2]  00 00
 (1628565846.611570)  can1  01310000   [4]  00 00 00 00
 (1628565846.612096)  can1  01800000   [8]  95 01 8E 01 85 0B A5 06
 (1628565846.612539)  can1  00000099   [4]  F6 0F FF 0F
 (1628565846.639134)  can1  08020080   [2]  CA 0C
 (1628565846.639726)  can1  01800000   [8]  96 01 8F 01 86 0B A5 06
 (1628565846.640143)  can1  01310000   [4]  00 00 00 00
 (1628565846.648653)  can1  00000099   [4]  FC 0F FC 0F
 (1628565846.674564)  can1  02020880   [8]  BE BE BD BF BE BD BB BA
 (1628565846.676874)  can1  08000080   [2]  00 00
 (1628565846.677425)  can1  01800000   [8]  96 01 8E 01 86 0B A6 06
 (1628565846.677861)  can1  01310000   [4]  00 00 00 00
 (1628565846.685479)  can1  020C0180   [8]  00 00 00 00 00 00 00 00
 (1628565846.686495)  can1  00000099   [4]  F7 0F FC 0F
 (1628565846.705469)  can1  08010080   [2]  00 00
 (1628565846.706051)  can1  01800000   [8]  96 01 8E 01 86 0B A6 06
 (1628565846.706472)  can1  01310000   [4]  00 00 00 00
 (1628565846.709382)  can1  0000000A   [8]  20 46 52 4F 4E 54 20 20
 (1628565846.709827)  can1  00000004   [5]  11 86 61 2E 00
 (1628565846.715187)  can1  00000099   [4]  FC 0F FC 0F
 (1628565846.722929)  can1  02020980   [8]  B8 B9 BD BC B9 BD BE BD
 (1628565846.742847)  can1  08020080   [2]  D5 0C
 (1628565846.743290)  can1  01310000   [4]  00 00 00 00
 (1628565846.743849)  can1  01800000   [8]  96 01 8E 01 83 0B A4 06
 (1628565846.744292)  can1  00000099   [4]  F7 0F FC 0F
 (1628565846.765486)  can1  0000000D   [8]  49 44 4C 45 20 20 20 20
 (1628565846.766081)  can1  0000000C   [8]  30 30 3A 31 31 3A 38 37
 (1628565846.766369)  can1  00000008   [1]  00
 (1628565846.766913)  can1  0000000B   [8]  55 4C 52 32 30 32 31 20
 (1628565846.771941)  can1  08000080   [2]  00 00
 (1628565846.772473)  can1  01800000   [8]  97 01 8F 01 85 0B A5 06
 (1628565846.772920)  can1  01310000   [4]  00 00 00 00
 (1628565846.781521)  can1  00000099   [4]  FA 0F FF 0F
 (1628565846.809628)  can1  0000000A   [8]  20 46 52 4F 4E 54 20 20
 (1628565846.810075)  can1  00000004   [5]  11 86 61 2E 00
 (1628565846.810632)  can1  01800000   [8]  96 01 8E 01 84 0B A5 06
 (1628565846.811080)  can1  01310000   [4]  00 00 00 00
 (1628565846.811454)  can1  08010080   [2]  00 00
 (1628565846.819319)  can1  00000099   [4]  F7 0F FC 0F
 (1628565846.837973)  can1  08020080   [2]  DA 0C
 (1628565846.838579)  can1  01800000   [8]  96 01 8E 01 85 0B A4 06
 (1628565846.838976)  can1  01310000   [4]  00 00 00 00
 (1628565846.847512)  can1  00000099   [4]  F8 0F FD 0F
 (1628565846.850569)  can1  02010001   [1]  23
 (1628565846.875812)  can1  08000080   [2]  00 00
 (1628565846.876369)  can1  01800000   [8]  96 01 8F 01 87 0B A4 06
 (1628565846.876814)  can1  01310000   [4]  00 00 00 00
 (1628565846.878509)  can1  02070081   [8]  00 00 00 00 08 00 00 00
 (1628565846.885435)  can1  00000099   [4]  F6 0F FD 0F
 (1628565846.904304)  can1  08010080   [2]  00 00
 (1628565846.904891)  can1  01800000   [8]  96 01 8E 01 85 0B A6 06
 (1628565846.905319)  can1  01310000   [4]  00 00 00 00
 (1628565846.909959)  can1  0000000A   [8]  20 46 52 4F 4E 54 20 20
 (1628565846.910286)  can1  00000004   [5]  11 86 61 2E 00
 (1628565846.914060)  can1  00000099   [4]  FA 0F FD 0F
 (1628565846.941668)  can1  08020080   [2]  E8 0C
 (1628565846.942117)  can1  01310000   [4]  00 00 00 00
 (1628565846.942691)  can1  01800000   [8]  96 01 8E 01 84 0B A5 06
 (1628565846.943121)  can1  00000099   [4]  F9 0F FC 0F
 (1628565846.970081)  can1  08000080   [2]  00 00
 (1628565846.970631)  can1  01800000   [8]  95 01 8E 01 85 0B A5 06
 (1628565846.971083)  can1  01310000   [4]  00 00 00 00
 (1628565846.978998)  can1  02020A80   [8]  BE BD BE BE BE BF BE C0
 (1628565846.979963)  can1  00000099   [4]  F9 0F FC 0F
 (1628565846.989090)  can1  02030180   [8]  1D 1D 1D 1D 1D 1D FF FF
 (1628565846.998836)  can1  08010080   [2]  00 00
 (1628565846.999366)  can1  01310000   [4]  00 00 00 00
 (1628565846.999828)  can1  01800000   [8]  96 01 8E 01 85 0B A4 06
 (1628565847.000255)  can1  00000099   [4]  F9 0F FC 0F
 (1628565847.010135)  can1  0000000A   [8]  20 46 52 4F 4E 54 20 20
 (1628565847.010572)  can1  00000004   [5]  11 86 61 2E 00
 (1628565847.026979)  can1  02020B80   [8]  BE BE BE BE BE BE BE BE
 (1628565847.036562)  can1  08020080   [2]  CF 0C
 (1628565847.037185)  can1  01310000   [4]  00 00 00 00
 (1628565847.037552)  can1  01800000   [8]  96 01 8D 01 84 0B A3 06
 (1628565847.037986)  can1  00000099   [4]  F9 0F FC 0F
 (1628565847.064997)  can1  08000080   [2]  00 00
 (1628565847.065582)  can1  01800000   [8]  95 01 8D 01 85 0B A4 06
 (1628565847.065990)  can1  01310000   [4]  00 00 00 00
 (1628565847.074757)  can1  00000099   [4]  F7 0F FD 0F
 (1628565847.102692)  can1  08010080   [2]  00 00
 (1628565847.103302)  can1  01800000   [8]  96 01 8D 01 83 0B A5 06
 (1628565847.103692)  can1  01310000   [4]  00 00 00 00
 (1628565847.110425)  can1  0000000A   [8]  20 46 52 4F 4E 54 20 20
 (1628565847.110892)  can1  00000004   [5]  11 86 61 2E 00
 (1628565847.112719)  can1  00000099   [4]  FA 0F FC 0F
 (1628565847.131153)  can1  08020080   [2]  D2 0C
 (1628565847.131769)  can1  01800000   [8]  96 01 8E 01 86 0B A4 06
 (1628565847.132172)  can1  01310000   [4]  00 00 00 00
 (1628565847.140738)  can1  00000099   [4]  F9 0F FD 0F
 (1628565847.154494)  can1  02020C81   [4]  BE BE BE BE
 (1628565847.169078)  can1  08000080   [2]  00 00
 (1628565847.169637)  can1  01800000   [8]  96 01 8D 01 88 0B A4 06
 (1628565847.170082)  can1  01310000   [4]  00 00 00 00
 (1628565847.178868)  can1  00000099   [4]  FD 0F FF 0F
 (1628565847.197687)  can1  08010080   [2]  00 00
 (1628565847.198251)  can1  01800000   [8]  96 01 8D 01 86 0B A5 06
 (1628565847.198693)  can1  01310000   [4]  00 00 00 00
 (1628565847.199123)  can1  00000099   [4]  F7 0F FE 0F
 (1628565847.210699)  can1  0000000A   [8]  20 46 52 4F 4E 54 20 20
 (1628565847.211154)  can1  00000004   [5]  11 86 61 2E 00
 (1628565847.219140)  can1  02030380   [8]  1D 1D 1D 1D 1D 1D 1D 1D
 (1628565847.235211)  can1  08020080   [2]  D1 0C
 (1628565847.235778)  can1  01800000   [8]  97 01 8E 01 85 0B A3 06
 (1628565847.236241)  can1  01310000   [4]  00 00 00 00
 (1628565847.238998)  can1  02020080   [8]  BA BE BD BE BE BF BD BE
 (1628565847.244897)  can1  00000099   [4]  FA 0F FC 0F
 (1628565847.263812)  can1  08000080   [2]  00 00
 (1628565847.264384)  can1  01800000   [8]  96 01 8E 01 86 0B A5 06
 (1628565847.264809)  can1  01310000   [4]  00 00 00 00
 (1628565847.273375)  can1  00000099   [4]  FC 0F FF 0F
 (1628565847.287189)  can1  0000000D   [8]  49 44 4C 45 20 20 20 20
 (1628565847.287768)  can1  0000000C   [8]  30 30 3A 31 32 3A 34 30
 (1628565847.288079)  can1  00000008   [1]  00
 (1628565847.288633)  can1  0000000B   [8]  55 4C 52 32 30 32 31 20
 (1628565847.292717)  can1  08010080   [2]  00 00
 (1628565847.293253)  can1  01800000   [8]  96 01 8D 01 86 0B A6 06
 (1628565847.293722)  can1  01310000   [4]  00 00 00 00
 (1628565847.294128)  can1  00000099   [4]  F9 0F FF 0F
 (1628565847.311000)  can1  0000000A   [8]  20 46 52 4F 4E 54 20 20
 (1628565847.311425)  can1  00000004   [5]  11 86 61 2E 00
 (1628565847.330247)  can1  08020080   [2]  C6 0C
 (1628565847.330811)  can1  01800000   [8]  95 01 8E 01 83 0B A5 06
 (1628565847.331266)  can1  01310000   [4]  00 00 00 00
 (1628565847.340041)  can1  00000099   [4]  F9 0F FC 0F
 (1628565847.358837)  can1  08000080   [2]  00 00
 (1628565847.359426)  can1  01800000   [8]  96 01 8E 01 86 0B A4 06
 (1628565847.359875)  can1  01310000   [4]  00 00 00 00
 (1628565847.368569)  can1  00000099   [4]  FB 0F FD 0F
 (1628565847.396496)  can1  08010080   [2]  00 00
 (1628565847.397046)  can1  01800000   [8]  96 01 8E 01 86 0B A5 06
 (1628565847.397497)  can1  01310000   [4]  00 00 00 00
 (1628565847.406036)  can1  00000099   [4]  FB 0F FE 0F
 (1628565847.411269)  can1  0000000A   [8]  20 46 52 4F 4E 54 20 20
 (1628565847.411715)  can1  00000004   [5]  11 86 61 2E 00
 (1628565847.424919)  can1  08020080   [2]  C9 0C
 (1628565847.425516)  can1  01800000   [8]  96 01 8D 01 87 0B A5 06
 (1628565847.425930)  can1  01310000   [4]  00 00 00 00
 (1628565847.434519)  can1  00000099   [4]  F9 0F FF 0F
 (1628565847.458569)  can1  02020280   [8]  BE BE BE BE BE BE BB BE
 (1628565847.462849)  can1  08000080   [2]  00 00
 (1628565847.463381)  can1  01800000   [8]  96 01 8D 01 83 0B A5 06
 (1628565847.463824)  can1  01310000   [4]  00 00 00 00
 (1628565847.472382)  can1  00000099   [4]  F9 0F FB 0F
 (1628565847.491390)  can1  08010080   [2]  00 00
 (1628565847.491955)  can1  01800000   [8]  96 01 8D 01 85 0B A4 06
 (1628565847.492389)  can1  01310000   [4]  00 00 00 00
 (1628565847.501179)  can1  00000099   [4]  F7 0F FD 0F
 (1628565847.511536)  can1  0000000A   [8]  20 46 52 4F 4E 54 20 20
 (1628565847.511998)  can1  00000004   [5]  11 86 61 2E 00
 (1628565847.522758)  can1  02020380   [8]  BE BD BD BD BE BE BE BE
 (1628565847.529266)  can1  08020080   [2]  BC 0C
 (1628565847.529816)  can1  01800000   [8]  95 01 8D 01 86 0B A5 06
 (1628565847.530262)  can1  01310000   [4]  00 00 00 00
 (1628565847.530688)  can1  00000099   [4]  FB 0F FF 0F
 (1628565847.532874)  can1  02030680   [8]  05 1D 1E F8 00 1E 1E 0E
 (1628565847.557819)  can1  08000080   [2]  00 00
 (1628565847.558397)  can1  01800000   [8]  97 01 8E 01 84 0B A5 06
 (1628565847.558819)  can1  01310000   [4]  00 00 00 00
 (1628565847.567567)  can1  00000099   [4]  FA 0F FE 0F
 (1628565847.586319)  can1  08010080   [2]  00 00
 (1628565847.586874)  can1  01800000   [8]  96 01 8D 01 85 0B A3 06
 (1628565847.587317)  can1  01310000   [4]  00 00 00 00
 (1628565847.596101)  can1  00000099   [4]  F7 0F FC 0F
 (1628565847.611831)  can1  0000000A   [8]  20 46 52 4F 4E 54 20 20
 (1628565847.612266)  can1  00000004   [5]  11 86 61 2E 00
 (1628565847.624001)  can1  08020080   [2]  BE 0C
 (1628565847.624551)  can1  01800000   [8]  97 01 8D 01 85 0B A6 06
 (1628565847.625076)  can1  01310000   [4]  00 00 00 00
 (1628565847.633574)  can1  00000099   [4]  FB 0F FD 0F
 (1628565847.650786)  can1  02020480   [8]  BE BD BE BF CA BE BF BE
 (1628565847.652778)  can1  08000080   [2]  00 00
 (1628565847.653280)  can1  01800000   [8]  96 01 8D 01 83 0B A5 06
 (1628565847.653725)  can1  01310000   [4]  00 00 00 00
 (1628565847.654155)  can1  00000099   [4]  FB 0F FE 0F
 (1628565847.690525)  can1  08010080   [2]  00 00
 (1628565847.690971)  can1  01310000   [4]  00 00 00 00
 (1628565847.691522)  can1  01800000   [8]  96 01 8D 01 86 0B A5 06
 (1628565847.691962)  can1  00000099   [4]  F9 0F FC 0F
 (1628565847.712072)  can1  0000000A   [8]  20 46 52 4F 4E 54 20 20
 (1628565847.712522)  can1  00000004   [5]  11 86 62 2E 00
 (1628565847.718926)  can1  08020080   [2]  C9 0C
 (1628565847.719535)  can1  01800000   [8]  95 01 8D 01 86 0B A4 06
 (1628565847.719936)  can1  01310000   [4]  00 00 00 00
 (1628565847.728702)  can1  00000099   [4]  F7 0F FB 0F
 (1628565847.756779)  can1  08000080   [2]  00 00
 (1628565847.757344)  can1  01800000   [8]  96 01 8D 01 86 0B A4 06
 (1628565847.757788)  can1  01310000   [4]  00 00 00 00
 (1628565847.758288)  can1  00000099   [4]  FC 0F FF 0F
 (1628565847.763116)  can1  02020580   [8]  BE BE BE BE BE BE BE BF
 (1628565847.785458)  can1  08010080   [2]  00 00
 (1628565847.785956)  can1  01310000   [4]  00 00 00 00
 (1628565847.786459)  can1  01800000   [8]  96 01 8E 01 85 0B A3 06
 (1628565847.786890)  can1  00000099   [4]  FD 0F FE 0F
 (1628565847.787899)  can1  020C0281   [4]  00 00 00 00
 (1628565847.808850)  can1  0000000D   [8]  49 44 4C 45 20 20 20 20
 (1628565847.809405)  can1  0000000C   [8]  30 30 3A 31 32 3A 39 31
 (1628565847.809737)  can1  00000008   [1]  00
 (1628565847.810283)  can1  0000000B   [8]  55 4C 52 32 30 32 31 20
 (1628565847.812390)  can1  0000000A   [8]  20 46 52 4F 4E 54 20 20
 (1628565847.812782)  can1  00000004   [5]  11 86 62 2E 00
 (1628565847.814737)  can1  08020080   [2]  C7 0C
 (1628565847.815585)  can1  01800000   [8]  96 01 8D 01 86 0B A4 06
 (1628565847.815780)  can1  01310000   [4]  00 00 00 00
 (1628565847.824346)  can1  00000099   [4]  FA 0F FD 0F
 (1628565847.827311)  can1  02010001   [1]  23
 (1628565847.837471)  can1  02070081   [8]  00 00 00 00 08 00 00 00
 (1628565847.853145)  can1  08000080   [2]  00 00
 (1628565847.853693)  can1  01800000   [8]  96 01 8E 01 85 0B A4 06
 (1628565847.854107)  can1  01310000   [4]  00 00 00 00
 (1628565847.862550)  can1  00000099   [4]  F7 0F FD 0F
 (1628565847.881258)  can1  08010080   [2]  00 00
 (1628565847.881753)  can1  01800000   [8]  96 01 8D 01 86 0B A4 06
 (1628565847.882187)  can1  01310000   [4]  00 00 00 00
 (1628565847.890689)  can1  00000099   [4]  F9 0F FD 0F
 (1628565847.912592)  can1  0000000A   [8]  20 46 52 4F 4E 54 20 20
 (1628565847.913486)  can1  00000004   [5]  11 86 62 2E 00
 (1628565847.918653)  can1  08020080   [2]  DB 0C
 (1628565847.919155)  can1  01800000   [8]  95 01 8E 01 85 0B A4 06
 (1628565847.919603)  can1  01310000   [4]  00 00 00 00
 (1628565847.928158)  can1  00000099   [4]  F9 0F FD 0F
 (1628565847.947046)  can1  08000080   [2]  00 00
 (1628565847.947650)  can1  01800000   [8]  95 01 8E 01 86 0B A5 06
 (1628565847.948047)  can1  01310000   [4]  00 00 00 00
 (1628565847.955277)  can1  02020680   [8]  BE C0 C0 BE BE BF BD BE
 (1628565847.956690)  can1  00000099   [4]  F7 0F FE 0F
 (1628565847.984727)  can1  08010080   [2]  00 00
 (1628565847.985284)  can1  01800000   [8]  96 01 8F 01 87 0B A5 06
 (1628565847.985725)  can1  01310000   [4]  00 00 00 00
 (1628565847.994267)  can1  00000099   [4]  F9 0F FF 0F
 (1628565848.012837)  can1  0000000A   [8]  20 46 52 4F 4E 54 20 20
 (1628565848.013286)  can1  00000004   [5]  11 86 62 2E 00
 (1628565848.013855)  can1  01800000   [8]  96 01 8E 01 86 0B A3 06
 (1628565848.014317)  can1  01310000   [4]  00 00 00 00
 (1628565848.014664)  can1  08020080   [2]  CD 0C
 (1628565848.022631)  can1  00000099   [4]  F7 0F FC 0F
 (1628565848.050510)  can1  08000080   [2]  00 00
 (1628565848.051066)  can1  01800000   [8]  96 01 8D 01 86 0B A5 06
 (1628565848.051510)  can1  01310000   [4]  00 00 00 00
 (1628565848.060047)  can1  00000099   [4]  FC 0F FF 0F
 (1628565848.067039)  can1  02020780   [8]  BA BE BE BE BE BD BE BE
 (1628565848.079071)  can1  08010080   [2]  00 00
 (1628565848.079626)  can1  01800000   [8]  96 01 8E 01 84 0B A5 06
 (1628565848.080083)  can1  01310000   [4]  00 00 00 00
 (1628565848.081686)  can1  02030C80   [8]  1D FF 1E 1E FF 1E 1D 1E
 (1628565848.089120)  can1  00000099   [4]  F9 0F FB 0F
 (1628565848.113105)  can1  0000000A   [8]  20 46 52 4F 4E 54 20 20
 (1628565848.113561)  can1  00000004   [5]  11 86 62 2E 00
 (1628565848.116746)  can1  08020080   [2]  DC 0C
 (1628565848.117305)  can1  01800000   [8]  95 01 8E 01 86 0B A4 06
 (1628565848.117749)  can1  01310000   [4]  00 00 00 00
 (1628565848.126390)  can1  00000099   [4]  FC 0F FD 0F
 (1628565848.131358)  can1  02020880   [8]  BE BE BD BF BE BE BB BA
 (1628565848.145408)  can1  08000080   [2]  00 00
 (1628565848.145955)  can1  01800000   [8]  96 01 8E 01 85 0B A5 06
 (1628565848.146401)  can1  01310000   [4]  00 00 00 00
 (1628565848.154953)  can1  00000099   [4]  F7 0F FC 0F
 (1628565848.173954)  can1  08010080   [2]  00 00
 (1628565848.174518)  can1  01800000   [8]  96 01 8E 01 86 0B A5 06
 (1628565848.174962)  can1  01310000   [4]  00 00 00 00
 (1628565848.183464)  can1  00000099   [4]  F9 0F FD 0F
 (1628565848.211221)  can1  08020080   [2]  C7 0C
 (1628565848.211811)  can1  01800000   [8]  96 01 8E 01 86 0B A5 06
 (1628565848.212245)  can1  01310000   [4]  00 00 00 00
 (1628565848.213405)  can1  0000000A   [8]  20 46 52 4F 4E 54 20 20
 (1628565848.213850)  can1  00000004   [5]  11 86 62 2E 00
 (1628565848.220999)  can1  00000099   [4]  F7 0F FF 0F
 (1628565848.239895)  can1  08000080   [2]  00 00
 (1628565848.240453)  can1  01800000   [8]  97 01 8E 01 86 0B A4 06
 (1628565848.240898)  can1  01310000   [4]  00 00 00 00
 (1628565848.249460)  can1  00000099   [4]  FA 0F FF 0F
 (1628565848.258968)  can1  02020980   [8]  B8 B9 BD BC B9 BD BE BD
 (1628565848.277646)  can1  08010080   [2]  00 00
 (1628565848.278206)  can1  01800000   [8]  96 01 8E 01 85 0B A4 06
 (1628565848.278646)  can1  01310000   [4]  00 00 00 00
 (1628565848.287219)  can1  00000099   [4]  FA 0F FF 0F
 (1628565848.305680)  can1  08020080   [2]  C7 0C
 (1628565848.306234)  can1  01800000   [8]  97 01 8E 01 85 0B A5 06
 (1628565848.306671)  can1  01310000   [4]  00 00 00 00
 (1628565848.313687)  can1  0000000A   [8]  20 46 52 4F 4E 54 20 20
 (1628565848.314131)  can1  00000004   [5]  11 86 62 2E 00
 (1628565848.315660)  can1  00000099   [4]  F9 0F FE 0F
 (1628565848.330549)  can1  0000000D   [8]  49 44 4C 45 20 20 20 20
 (1628565848.331074)  can1  0000000C   [8]  30 30 3A 31 33 3A 34 34
 (1628565848.331392)  can1  00000008   [1]  00
 (1628565848.331994)  can1  0000000B   [8]  55 4C 52 32 30 32 31 20
 (1628565848.344368)  can1  08000080   [2]  00 00
 (1628565848.344836)  can1  01800000   [8]  96 01 8E 01 85 0B A5 06
 (1628565848.345281)  can1  01310000   [4]  00 00 00 00
 (1628565848.357494)  can1  00000099   [4]  FC 0F FE 0F
 (1628565848.371115)  can1  02020A80   [8]  BE BD BE BE BE BF BE C0
 (1628565848.372864)  can1  08010080   [2]  00 00
 (1628565848.373427)  can1  01800000   [8]  96 01 8E 01 85 0B A3 06
 (1628565848.373849)  can1  01310000   [4]  00 00 00 00
 (1628565848.381928)  can1  02030F80   [8]  FF 1E 1E 1E 1E 1E 1E 1E
 (1628565848.382732)  can1  00000099   [4]  F7 0F FC 0F
 (1628565848.410390)  can1  08020080   [2]  D3 0C
 (1628565848.410945)  can1  01800000   [8]  95 01 8E 01 86 0B A4 06
 (1628565848.411396)  can1  01310000   [4]  00 00 00 00
 (1628565848.413920)  can1  0000000A   [8]  20 46 52 4F 4E 54 20 20
 (1628565848.414367)  can1  00000004   [5]  11 86 62 2E 00
 (1628565848.420218)  can1  00000099   [4]  F9 0F FF 0F
 (1628565848.434996)  can1  02020B80   [8]  BE BE BE BE BE BE BE BE
 (1628565848.439332)  can1  08000080   [2]  00 00
 (1628565848.439859)  can1  01800000   [8]  96 01 8E 01 86 0B A3 06
 (1628565848.440302)  can1  01310000   [4]  00 00 00 00
 (1628565848.449168)  can1  00000099   [4]  FB 0F FC 0F
 (1628565848.467897)  can1  08010080   [2]  00 00
 (1628565848.468460)  can1  01800000   [8]  95 01 8D 01 83 0B A4 06
 (1628565848.468904)  can1  01310000   [4]  00 00 00 00
 (1628565848.477671)  can1  00000099   [4]  F8 0F FF 0F
 (1628565848.505444)  can1  08020080   [2]  BE 0C
 (1628565848.506005)  can1  01800000   [8]  96 01 8E 01 84 0B A4 06
 (1628565848.506437)  can1  01310000   [4]  00 00 00 00
 (1628565848.514167)  can1  0000000A   [8]  20 46 52 4F 4E 54 20 20
 (1628565848.514649)  can1  00000004   [5]  11 86 62 2E 00
 (1628565848.515049)  can1  00000099   [4]  F9 0F FF 0F
 (1628565848.534041)  can1  08000080   [2]  00 00
 (1628565848.534598)  can1  01800000   [8]  96 01 8E 01 85 0B A4 06
 (1628565848.535041)  can1  01310000   [4]  00 00 00 00
 (1628565848.543566)  can1  00000099   [4]  F9 0F FF 0F
 (1628565848.563011)  can1  02020C81   [4]  BE BE BE BE
 (1628565848.571778)  can1  08010080   [2]  00 00
 (1628565848.572358)  can1  01800000   [8]  97 01 8E 01 85 0B A3 06
 (1628565848.572776)  can1  01310000   [4]  00 00 00 00
 (1628565848.581333)  can1  00000099   [4]  FA 0F FE 0F
 (1628565848.599923)  can1  08020080   [2]  D5 0C
 (1628565848.600494)  can1  01800000   [8]  97 01 8D 01 86 0B A5 06
 (1628565848.600931)  can1  01310000   [4]  00 00 00 00
 (1628565848.609463)  can1  00000099   [4]  FB 0F FF 0F
 (1628565848.614436)  can1  0000000A   [8]  20 46 52 4F 4E 54 20 20
 (1628565848.614895)  can1  00000004   [5]  11 87 62 2E 00
 (1628565848.627152)  can1  02020080   [8]  BA BE BD BE BE BF BD BE
 (1628565848.637985)  can1  08000080   [2]  00 00
 (1628565848.638546)  can1  01800000   [8]  95 01 8E 01 86 0B A4 06
 (1628565848.638970)  can1  01310000   [4]  00 00 00 00
 (1628565848.640654)  can1  02031180   [8]  1D 1C 1D 1D 1D 1C 1D 1D
 (1628565848.647670)  can1  00000099   [4]  F9 0F FB 0F
 (1628565848.666657)  can1  08010080   [2]  00 00
 (1628565848.667214)  can1  01800000   [8]  95 01 8E 01 85 0B A4 06
 (1628565848.667654)  can1  01310000   [4]  00 00 00 00
 (1628565848.676170)  can1  00000099   [4]  F7 0F FF 0F
 (1628565848.704000)  can1  08020080   [2]  D0 0C
 (1628565848.704565)  can1  01800000   [8]  97 01 8E 01 85 0B A4 06
 (1628565848.705809)  can1  01310000   [4]  00 00 00 00
 (1628565848.713549)  can1  00000099   [4]  FA 0F FD 0F
 (1628565848.714700)  can1  0000000A   [8]  20 46 52 4F 4E 54 20 20
 (1628565848.715175)  can1  00000004   [5]  11 86 62 2E 00
 (1628565848.732775)  can1  08000080   [2]  00 00
 (1628565848.733361)  can1  01800000   [8]  97 01 8E 01 86 0B A5 06
 (1628565848.733795)  can1  01310000   [4]  00 00 00 00
 (1628565848.740120)  can1  02020180   [8]  BC BE BD BE BD BE BD BD
 (1628565848.742489)  can1  00000099   [4]  F9 0F FE 0F
 (1628565848.770636)  can1  08010080   [2]  00 00
 (1628565848.771198)  can1  01800000   [8]  96 01 8E 01 85 0B A3 06
 (1628565848.771665)  can1  01310000   [4]  00 00 00 00
 (1628565848.780219)  can1  00000099   [4]  FC 0F FC 0F
 (1628565848.798893)  can1  08020080   [2]  D2 0C
 (1628565848.799454)  can1  01800000   [8]  96 01 8E 01 85 0B A4 06
 (1628565848.799896)  can1  01310000   [4]  00 00 00 00
 (1628565848.808483)  can1  00000099   [4]  FA 0F FD 0F
 (1628565848.815191)  can1  0000000A   [8]  20 46 52 4F 4E 54 20 20
 (1628565848.815721)  can1  00000004   [5]  11 87 62 2E 00
 (1628565848.827799)  can1  08000080   [2]  00 00
 (1628565848.828367)  can1  01800000   [8]  96 01 8E 01 86 0B A4 06
 (1628565848.828812)  can1  01310000   [4]  00 00 00 00
 (1628565848.837342)  can1  00000099   [4]  FB 0F FF 0F
 (1628565848.852130)  can1  0000000D   [8]  49 44 4C 45 20 20 20 20
 (1628565848.852728)  can1  0000000C   [8]  30 30 3A 31 33 3A 39 35
 (1628565848.853064)  can1  00000008   [1]  00
 (1628565848.853561)  can1  0000000B   [8]  55 4C 52 32 30 32 31 20
 (1628565848.866375)  can1  08010080   [2]  00 00
 (1628565848.866442)  can1  01800000   [8]  95 01 8E 01 85 0B A4 06
 (1628565848.867544)  can1  01310000   [4]  00 00 00 00
 (1628565848.867585)  can1  00000099   [4]  F7 0F FF 0F
 (1628565848.867811)  can1  02010001   [1]  23
 (1628565848.871476)  can1  02070081   [8]  00 00 00 00 08 00 00 00
 (1628565848.894276)  can1  08020080   [2]  BA 0C
 (1628565848.894822)  can1  01800000   [8]  97 01 8D 01 84 0B A4 06
 (1628565848.895261)  can1  01310000   [4]  00 00 00 00
 (1628565848.904028)  can1  00000099   [4]  F9 0F FD 0F
 (1628565848.915243)  can1  0000000A   [8]  20 46 52 4F 4E 54 20 20
 (1628565848.915689)  can1  00000004   [5]  11 87 62 2E 00
 (1628565848.931301)  can1  02020280   [8]  BE BE BE BE BE BE BB BE
 (1628565848.932651)  can1  08000080   [2]  00 00
 (1628565848.933132)  can1  01800000   [8]  97 01 8D 01 86 0B A4 06
 (1628565848.933585)  can1  01310000   [4]  00 00 00 00
 (1628565848.941723)  can1  02030080   [8]  FF 1D 1D 1D 1D 1D 1D 1D
 (1628565848.942225)  can1  00000099   [4]  F8 0F FF 0F
 (1628565848.961358)  can1  08010080   [2]  00 00
 (1628565848.961833)  can1  01800000   [8]  96 01 8E 01 83 0B A5 06
 (1628565848.962274)  can1  01310000   [4]  00 00 00 00
 (1628565848.970852)  can1  00000099   [4]  FC 0F FF 0F
 (1628565848.998806)  can1  08020080   [2]  D0 0C
 (1628565848.999362)  can1  01800000   [8]  96 01 8E 01 83 0B A4 06
 (1628565848.999805)  can1  01310000   [4]  00 00 00 00
 (1628565849.008351)  can1  00000099   [4]  FC 0F FD 0F
 (1628565849.015503)  can1  0000000A   [8]  20 46 52 4F 4E 54 20 20
 (1628565849.015944)  can1  00000004   [5]  11 87 62 2E 00
 (1628565849.027587)  can1  08000080   [2]  00 00
 (1628565849.028189)  can1  01800000   [8]  96 01 8C 01 84 0B A4 06
 (1628565849.028590)  can1  01310000   [4]  00 00 00 00
 (1628565849.037163)  can1  00000099   [4]  FD 0F FF 0F
 (1628565849.043341)  can1  02020380   [8]  BE BD BD BD BE BE BE BE
 (1628565849.056292)  can1  08010080   [2]  00 00
 (1628565849.056853)  can1  01800000   [8]  97 01 8D 01 84 0B A5 06
 (1628565849.057292)  can1  01310000   [4]  00 00 00 00
 (1628565849.065909)  can1  00000099   [4]  FA 0F FB 0F
 (1628565849.093837)  can1  08020080   [2]  D6 0C
 (1628565849.094396)  can1  01800000   [8]  96 01 8E 01 85 0B A4 06
 (1628565849.094842)  can1  01310000   [4]  00 00 00 00
 (1628565849.103469)  can1  00000099   [4]  FA 0F FD 0F
 (1628565849.115718)  can1  0000000A   [8]  20 46 52 4F 4E 54 20 20
 (1628565849.116174)  can1  00000004   [5]  11 86 62 2C 00
 (1628565849.122785)  can1  08000080   [2]  00 00
 (1628565849.123387)  can1  01800000   [8]  96 01 8E 01 87 0B A4 06
 (1628565849.123786)  can1  01310000   [4]  00 00 00 00
 (1628565849.132573)  can1  00000099   [4]  FC 0F FF 0F
 (1628565849.160668)  can1  08010080   [2]  00 00
 (1628565849.161236)  can1  01800000   [8]  95 01 8D 01 83 0B A5 06
 (1628565849.161679)  can1  01310000   [4]  00 00 00 00
 (1628565849.162123)  can1  00000099   [4]  FD 0F FE 0F
 (1628565849.171466)  can1  02020480   [8]  BE BD BE BF CA BE BF BE
 (1628565849.188831)  can1  08020080   [2]  C2 0C
 (1628565849.189384)  can1  01800000   [8]  96 01 8E 01 83 0B A4 06
 (1628565849.189824)  can1  01310000   [4]  00 00 00 00
 (1628565849.193059)  can1  02030380   [8]  1D 1D 1D 1D 1D 1D 1D 1D
 (1628565849.198478)  can1  00000099   [4]  F9 0F FD 0F
 (1628565849.215962)  can1  0000000A   [8]  20 46 52 4F 4E 54 20 20
 (1628565849.216426)  can1  00000004   [5]  11 87 62 2E 00
 (1628565849.226793)  can1  08000080   [2]  00 00
 (1628565849.227359)  can1  01800000   [8]  95 01 8E 01 86 0B A4 06
 (1628565849.227794)  can1  01310000   [4]  00 00 00 00
 (1628565849.236358)  can1  00000099   [4]  F6 0F FD 0F
 (1628565849.236914)  can1  02020580   [8]  BE BE BE BE BE BE BE BF
 (1628565849.255371)  can1  08010080   [2]  00 00
 (1628565849.255919)  can1  01800000   [8]  96 01 8D 01 86 0B A4 06
 (1628565849.256356)  can1  01310000   [4]  00 00 00 00
 (1628565849.264901)  can1  00000099   [4]  F7 0F FF 0F
 (1628565849.283580)  can1  08020080   [2]  CE 0C
 (1628565849.284140)  can1  01800000   [8]  95 01 8C 01 83 0B A3 06
 (1628565849.284610)  can1  01310000   [4]  00 00 00 00
 (1628565849.293122)  can1  00000099   [4]  F7 0F FE 0F
 (1628565849.316199)  can1  0000000A   [8]  20 46 52 4F 4E 54 20 20
 (1628565849.316651)  can1  00000004   [5]  11 87 62 2B 00
 (1628565849.321560)  can1  08000080   [2]  00 00
 (1628565849.322122)  can1  01800000   [8]  96 01 8D 01 86 0B A6 06
 (1628565849.322553)  can1  01310000   [4]  00 00 00 00
 (1628565849.331098)  can1  00000099   [4]  FD 0F FE 0F
 (1628565849.347503)  can1  02020680   [8]  BE C0 C0 BE BE BF BD BE
 (1628565849.350165)  can1  08010080   [2]  00 00
 (1628565849.350721)  can1  01800000   [8]  95 01 8D 01 86 0B A3 06
 (1628565849.351162)  can1  01310000   [4]  00 00 00 00
 (1628565849.359794)  can1  00000099   [4]  FD 0F FE 0F
 (1628565849.373746)  can1  0000000D   [8]  49 44 4C 45 20 20 20 20
 (1628565849.374306)  can1  0000000C   [8]  30 30 3A 31 34 3A 34 38
 (1628565849.374629)  can1  00000008   [1]  00
 (1628565849.375183)  can1  0000000B   [8]  55 4C 52 32 30 32 31 20
 (1628565849.387997)  can1  08020080   [2]  C3 0C
 (1628565849.388579)  can1  01800000   [8]  96 01 8D 01 84 0B A4 06
 (1628565849.389163)  can1  01310000   [4]  00 00 00 00
 (1628565849.397810)  can1  00000099   [4]  F9 0F FD 0F
 (1628565849.416442)  can1  0000000A   [8]  20 46 52 4F 4E 54 20 20
 (1628565849.416933)  can1  00000004   [5]  11 87 62 2E 00
 (1628565849.417722)  can1  01800000   [8]  96 01 8D 01 86 0B A4 06
 (1628565849.417917)  can1  01310000   [4]  00 00 00 00
 (1628565849.418281)  can1  08000080   [2]  00 00
 (1628565849.426577)  can1  00000099   [4]  FC 0F FD 0F
 (1628565849.454590)  can1  08010080   [2]  00 00
 (1628565849.455035)  can1  01310000   [4]  00 00 00 00
 (1628565849.455581)  can1  01800000   [8]  95 01 8D 01 85 0B A4 06
 (1628565849.456036)  can1  00000099   [4]  FB 0F FF 0F
 (1628565849.475960)  can1  02020780   [8]  BA BE BE BE BE BD BE BE
 (1628565849.483015)  can1  08020080   [2]  C7 0C
 (1628565849.483620)  can1  01800000   [8]  96 01 8D 01 85 0B A4 06
 (1628565849.483998)  can1  01310000   [4]  00 00 00 00
 (1628565849.485912)  can1  02030680   [8]  05 1D 1E F8 00 1E 1E 0E
 (1628565849.492847)  can1  00000099   [4]  F9 0F FD 0F
 (1628565849.516719)  can1  0000000A   [8]  20 46 52 4F 4E 54 20 20
 (1628565849.517182)  can1  00000004   [5]  11 87 62 2E 00
 (1628565849.521249)  can1  08000080   [2]  00 00
 (1628565849.521763)  can1  01800000   [8]  97 01 8E 01 85 0B A4 06
 (1628565849.522208)  can1  01310000   [4]  00 00 00 00
 (1628565849.530786)  can1  00000099   [4]  FA 0F FD 0F
 (1628565849.539634)  can1  02020880   [8]  BE BE BD BF BE BD BB BA
 (1628565849.549854)  can1  08010080   [2]  00 00
 (1628565849.550410)  can1  01800000   [8]  96 01 8F 01 84 0B A3 06
 (1628565849.550852)  can1  01310000   [4]  00 00 00 00
 (1628565849.559441)  can1  00000099   [4]  FD 0F FC 0F
 (1628565849.577902)  can1  08020080   [2]  D0 0C
