 (1628565839.289349)  can1  0000000A   [8]  20 46 52 4F 4E 54 20 20
 (1628565839.289837)  can1  00000004   [5]  11 84 5F 36 00
 (1628565839.299067)  can1  08020080   [2]  FF 0C
 (1628565839.299336)  can1  01800000   [8]  93 01 8F 01 85 0B A3 06
 (1628565839.299791)  can1  01310000   [4]  00 00 00 00
 (1628565839.308374)  can1  00000099   [4]  F7 0F FC 0F
 (1628565839.327389)  can1  08000080   [2]  00 00
 (1628565839.327954)  can1  01800000   [8]  96 01 8F 01 84 0B A3 06
 (1628565839.328414)  can1  01310000   [4]  00 00 00 00
 (1628565839.336991)  can1  00000099   [4]  FA 0F FC 0F
 (1628565839.343310)  can1  02020180   [8]  BC BE BD BE BD BE BD BD
 (1628565839.365325)  can1  08010080   [2]  00 00
 (1628565839.365880)  can1  01800000   [8]  95 01 8F 01 85 0B A3 06
 (1628565839.366323)  can1  01310000   [4]  00 00 00 00
 (1628565839.374829)  can1  00000099   [4]  FA 0F FF 0F
 (1628565839.389645)  can1  0000000A   [8]  20 46 52 4F 4E 54 20 20
 (1628565839.390114)  can1  00000004   [5]  11 84 5F 36 00
 (1628565839.393628)  can1  08020080   [2]  04 0D
 (1628565839.394199)  can1  01800000   [8]  95 01 8F 01 86 0B A4 06
 (1628565839.394640)  can1  01310000   [4]  00 00 00 00
 (1628565839.403232)  can1  00000099   [4]  FD 0F FE 0F
 (1628565839.431105)  can1  08000080   [2]  00 00
 (1628565839.431696)  can1  01800000   [8]  96 01 8E 01 85 0B A3 06
 (1628565839.432117)  can1  01310000   [4]  00 00 00 00
 (1628565839.432531)  can1  00000099   [4]  FB 0F FC 0F
 (1628565839.459509)  can1  08010080   [2]  00 00
 (1628565839.460069)  can1  01800000   [8]  96 01 8E 01 85 0B A3 06
 (1628565839.460519)  can1  01310000   [4]  00 00 00 00
 (1628565839.461695)  can1  0000000C   [8]  30 30 3A 30 34 3A 35 37
 (1628565839.461738)  can1  00000008   [1]  00
 (1628565839.461955)  can1  0000000B   [8]  55 4C 52 32 30 32 31 20
 (1628565839.462508)  can1  0000000D   [8]  49 44 4C 45 20 20 20 20
 (1628565839.469688)  can1  00000099   [4]  FD 0F FE 0F
 (1628565839.474225)  can1  02020280   [8]  BE BE BE BE BE BE BB BE
 (1628565839.488308)  can1  08020080   [2]  FF 0C
 (1628565839.488731)  can1  01310000   [4]  00 00 00 00
 (1628565839.489317)  can1  01800000   [8]  95 01 8E 01 86 0B A3 06
 (1628565839.489713)  can1  00000099   [4]  FC 0F FF 0F
 (1628565839.490267)  can1  0000000A   [8]  20 46 52 4F 4E 54 20 20
 (1628565839.490730)  can1  00000004   [5]  11 84 5F 36 00
 (1628565839.495714)  can1  020C0281   [4]  00 00 00 00
 (1628565839.526525)  can1  08000080   [2]  00 00
 (1628565839.527074)  can1  01800000   [8]  96 01 8F 01 85 0B A4 06
 (1628565839.527515)  can1  01310000   [4]  00 00 00 00
 (1628565839.536073)  can1  00000099   [4]  FB 0F FF 0F
 (1628565839.554999)  can1  08010080   [2]  00 00
 (1628565839.555605)  can1  01800000   [8]  97 01 8D 01 86 0B A3 06
 (1628565839.556008)  can1  01310000   [4]  00 00 00 00
 (1628565839.564560)  can1  00000099   [4]  F7 0F FC 0F
 (1628565839.590251)  can1  0000000A   [8]  20 46 52 4F 4E 54 20 20
 (1628565839.590708)  can1  00000004   [5]  11 84 5F 36 00
 (1628565839.592641)  can1  08020080   [2]  F9 0C
 (1628565839.593207)  can1  01800000   [8]  96 01 8E 01 86 0B A3 06
 (1628565839.593629)  can1  01310000   [4]  00 00 00 00
 (1628565839.602229)  can1  00000099   [4]  FB 0F FC 0F
 (1628565839.621203)  can1  08000080   [2]  00 00
 (1628565839.621816)  can1  01800000   [8]  96 01 8E 01 86 0B A4 06
 (1628565839.622211)  can1  01310000   [4]  00 00 00 00
 (1628565839.630766)  can1  00000099   [4]  FD 0F FE 0F
 (1628565839.647363)  can1  02020480   [8]  BE BD BE BF CA BE BF BE
 (1628565839.659125)  can1  08010080   [2]  00 00
 (1628565839.659704)  can1  01800000   [8]  95 01 8D 01 84 0B A3 06
 (1628565839.660129)  can1  01310000   [4]  00 00 00 00
 (1628565839.668725)  can1  00000099   [4]  F9 0F FE 0F
 (1628565839.687245)  can1  08020080   [2]  F4 0C
 (1628565839.687693)  can1  01310000   [4]  00 00 00 00
 (1628565839.688252)  can1  01800000   [8]  96 01 8E 01 85 0B A3 06
 (1628565839.688685)  can1  00000099   [4]  FA 0F FF 0F
 (1628565839.690613)  can1  0000000A   [8]  20 46 52 4F 4E 54 20 20
 (1628565839.690998)  can1  00000004   [5]  11 84 5F 36 00
 (1628565839.725278)  can1  08000080   [2]  00 00
 (1628565839.725838)  can1  01800000   [8]  95 01 8E 01 85 0B A3 06
 (1628565839.726279)  can1  01310000   [4]  00 00 00 00
 (1628565839.734855)  can1  00000099   [4]  FA 0F FD 0F
 (1628565839.753822)  can1  08010080   [2]  00 00
 (1628565839.754383)  can1  01800000   [8]  96 01 8E 01 86 0B A3 06
 (1628565839.754823)  can1  01310000   [4]  00 00 00 00
 (1628565839.763403)  can1  00000099   [4]  FB 0F FC 0F
 (1628565839.775442)  can1  02020580   [8]  BE BE BE BE BE BE BE BF
 (1628565839.782459)  can1  08020080   [2]  00 0D
 (1628565839.783732)  can1  01800000   [8]  96 01 8E 01 86 0B A2 06
 (1628565839.783785)  can1  01310000   [4]  00 00 00 00
 (1628565839.783796)  can1  00000099   [4]  FA 0F FD 0F
 (1628565839.785899)  can1  02030980   [8]  1E 1E FF FF FF 1D 1E 1D
 (1628565839.790806)  can1  0000000A   [8]  20 46 52 4F 4E 54 20 20
 (1628565839.791292)  can1  00000004   [5]  11 84 5F 36 00
 (1628565839.820296)  can1  08000080   [2]  00 00
 (1628565839.820852)  can1  01800000   [8]  96 01 8E 01 85 0B A3 06
 (1628565839.821286)  can1  01310000   [4]  00 00 00 00
 (1628565839.829861)  can1  00000099   [4]  FB 0F FF 0F
 (1628565839.839204)  can1  02010001   [1]  23
 (1628565839.849059)  can1  08010080   [2]  00 00
 (1628565839.849594)  can1  01800000   [8]  95 01 8E 01 86 0B A3 06
 (1628565839.850039)  can1  01310000   [4]  00 00 00 00
 (1628565839.851586)  can1  02070081   [8]  00 00 00 00 08 00 00 00
 (1628565839.858695)  can1  00000099   [4]  F7 0F FE 0F
 (1628565839.886590)  can1  08020080   [2]  FC 0C
 (1628565839.887145)  can1  01800000   [8]  97 01 8E 01 86 0B A4 06
 (1628565839.887588)  can1  01310000   [4]  00 00 00 00
 (1628565839.891114)  can1  0000000A   [8]  20 46 52 4F 4E 54 20 20
 (1628565839.891529)  can1  00000004   [5]  11 84 5F 36 00
 (1628565839.896423)  can1  00000099   [4]  FA 0F FF 0F
 (1628565839.915433)  can1  08000080   [2]  00 00
 (1628565839.916035)  can1  01800000   [8]  96 01 8F 01 85 0B A4 06
 (1628565839.916437)  can1  01310000   [4]  00 00 00 00
 (1628565839.925068)  can1  00000099   [4]  F9 0F FC 0F
 (1628565839.951369)  can1  02020680   [8]  BE C0 C0 BE BE BF BD BE
 (1628565839.953425)  can1  08010080   [2]  00 00
 (1628565839.953937)  can1  01310000   [4]  00 00 00 00
 (1628565839.954427)  can1  01800000   [8]  96 01 8E 01 83 0B A3 06
 (1628565839.954853)  can1  00000099   [4]  F9 0F FE 0F
 (1628565839.981723)  can1  08020080   [2]  00 0D
 (1628565839.982288)  can1  01800000   [8]  95 01 8E 01 86 0B A3 06
 (1628565839.982853)  can1  0000000C   [8]  30 30 3A 30 35 3A 31 30
 (1628565839.983170)  can1  00000008   [1]  00
 (1628565839.983725)  can1  0000000B   [8]  55 4C 52 32 30 32 31 20
 (1628565839.984290)  can1  0000000D   [8]  49 44 4C 45 20 20 20 20
 (1628565839.984719)  can1  01310000   [4]  00 00 00 00
 (1628565839.991385)  can1  0000000A   [8]  20 46 52 4F 4E 54 20 20
 (1628565839.991849)  can1  00000004   [5]  11 84 5F 36 00
 (1628565839.992300)  can1  00000099   [4]  FB 0F FE 0F
 (1628565840.011378)  can1  08000080   [2]  00 00
 (1628565840.011888)  can1  01800000   [8]  96 01 8E 01 85 0B A4 06